;$FILEVERSION=2.0
;$STARTTIME=45775.8909314005
;$COLUMNS=N,O,T,I,d,l,D
;
;   Start time: 4/28/2025 21:22:56.473.0
;   Generated by PCAN-View v5.2.0.926
;   Message   Time    Type ID     Rx/Tx
;   Number    Offset  |    [hex]  |  Data Length
;   |         [ms]    |    |      |  |  Data [hex] ...
;   |         |       |    |      |  |  |
;---+-- ------+------ +- --+----- +- +- +- +- -- -- -- -- -- -- --
      1         0.040 DT     0205 Rx 8  00 04 00 00 00 00 00 00 
      2         0.306 DT     0230 Rx 8  00 00 00 00 FE 00 00 03 
      3         0.578 DT     025B Rx 8  01 F4 09 F4 E0 00 80 00 
      4         0.880 DT     0421 Rx 8  00 00 10 00 00 00 38 00 
      5         1.184 DT     042D Rx 8  00 01 B8 28 37 00 00 00 
      6         1.463 DT     043E Rx 8  00 73 00 00 00 00 00 00 
      7         1.741 DT     0455 Rx 8  00 80 00 00 00 00 00 00 
      8         2.521 DT     007A Rx 8  00 00 02 C4 BC 70 00 00 
      9         2.768 DT     007B Rx 8  80 02 8B 10 00 00 00 00 
     10         3.014 DT     04B0 Rx 8  01 00 FF FE C0 00 00 F3 
     11         3.334 DT     007D Rx 8  00 00 F3 C0 00 20 08 00 
     12         3.608 DT     007F Rx 8  00 00 FF F0 00 00 00 00 
     13         3.866 DT     0213 Rx 8  FF FF 00 0C 00 01 FF 40 
     14         4.164 DT     0216 Rx 8  BF 72 DF 9E AA 00 2F 55 
     15         4.428 DT     0217 Rx 8  00 00 00 00 00 00 00 00 
     16         4.695 DT     0415 Rx 8  00 00 F0 F0 08 00 08 00 
     17         6.057 DT     0041 Rx 8  00 00 00 00 00 00 00 00 
     18         6.309 DT     0042 Rx 8  00 00 00 00 00 00 00 00 
     19         6.551 DT     042C Rx 8  84 02 00 00 1B 10 00 00 
     20         7.883 DT     0204 Rx 8  D4 00 7D 00 00 F7 00 00 
     21         8.139 DT     043D Rx 8  40 0A DC 0C 04 86 02 B1 
     22         8.391 DT     0205 Rx 8  00 04 00 00 00 00 00 00 
     23         8.649 DT     0167 Rx 8  02 7F FF 11 FF E0 00 00 
     24         9.373 DT     03A8 Rx 8  00 10 27 10 07 25 FE 48 
     25         9.954 DT     0082 Rx 8  80 08 14 00 97 80 20 FF 
     26        12.124 DT     007A Rx 8  00 00 02 C4 BC 70 00 00 
     27        12.370 DT     007B Rx 8  80 02 8B 10 00 00 00 00 
     28        13.034 DT     0217 Rx 8  00 00 00 00 00 00 00 00 
     29        14.817 DT     0048 Rx 8  20 00 00 00 00 00 00 00 
     30        15.063 DT     007E Rx 8  00 00 44 B8 00 0C 00 00 
     31        18.105 DT     0047 Rx 8  20 00 00 00 00 00 00 00 
     32        18.403 DT     0167 Rx 8  02 7F FF 11 FF E0 00 00 
     33        18.747 DT     0202 Rx 8  07 F6 30 00 60 00 00 00 
     34        19.040 DT     0204 Rx 8  D8 00 7D 00 00 F6 00 00 
     35        19.308 DT     0205 Rx 8  00 04 00 00 00 00 00 00 
     36        19.574 DT     0230 Rx 8  00 00 00 00 FE 00 00 03 
     37        19.834 DT     025B Rx 8  01 F4 09 F4 E0 00 80 00 
     38        22.142 DT     007A Rx 8  00 00 02 C4 BC 70 00 00 
     39        22.387 DT     007B Rx 8  80 02 CB 10 00 00 00 00 
     40        23.155 DT     007D Rx 8  00 00 F2 D0 00 20 08 00 
     41        23.421 DT     007F Rx 8  00 00 FF F0 00 00 00 00 
     42        23.681 DT     0213 Rx 8  FF FF 00 0C 00 01 FF 40 
     43        23.985 DT     0216 Rx 8  BF 72 DF 9E AA 00 00 3C 
     44        24.249 DT     0217 Rx 8  00 00 00 00 00 00 00 00 
     45        24.515 DT     0415 Rx 8  00 00 F4 EF 08 00 08 00 
     46        24.791 DT     04B0 Rx 8  01 00 FF FE D0 00 00 F2 
     47        26.374 DT     0041 Rx 8  00 00 00 00 00 00 00 00 
     48        26.626 DT     0042 Rx 8  00 00 00 00 00 00 00 00 
     49        27.852 DT     0204 Rx 8  DC 00 7D 00 00 F5 00 00 
     50        28.134 DT     0205 Rx 8  00 04 00 00 00 00 00 00 
     51        28.432 DT     0167 Rx 8  02 7F FF 11 FF E0 00 00 
     52        29.336 DT     03A8 Rx 8  00 10 27 10 07 25 FE 48 
     53        30.028 DT     0082 Rx 8  80 08 14 00 97 80 20 FF 
     54        30.277 DT     04DF Rx 8  00 FF 00 00 00 00 00 00 
     55        30.513 DT     03D9 Rx 8  19 8C FE 08 40 18 00 FD 
     56        32.063 DT     007A Rx 8  00 00 02 C3 BC 70 00 00 
     57        32.309 DT     007B Rx 8  80 02 8B 0C 00 00 00 00 
     58        32.974 DT     0217 Rx 8  00 00 00 00 00 00 00 00 
     59        34.943 DT     007E Rx 8  00 00 44 B8 00 0C 00 00 
     60        35.797 DT     0242 Rx 8  FF FF 20 0B D7 00 03 01 
     61        36.029 DT     042E Rx 8  65 B0 80 2E C0 62 00 00 
     62        36.817 DT     0048 Rx 8  20 00 00 00 00 00 00 00 
     63        38.112 DT     0047 Rx 8  20 00 00 00 00 00 00 00 
     64        38.394 DT     0167 Rx 8  02 7F FF 11 FF E0 00 00 
     65        38.744 DT     0202 Rx 8  07 F4 40 00 60 00 00 00 
     66        39.042 DT     0204 Rx 8  E0 00 7D 00 00 F4 00 00 
     67        39.310 DT     0205 Rx 8  00 04 00 00 00 00 00 00 
     68        39.576 DT     0230 Rx 8  00 00 00 00 FE 00 00 03 
     69        39.836 DT     025B Rx 8  01 F4 09 F4 E0 00 80 00 
     70        42.081 DT     007A Rx 8  00 00 02 C4 BC 70 00 00 
     71        42.325 DT     007B Rx 8  80 02 CB 10 00 00 00 00 
     72        43.091 DT     007D Rx 8  00 00 F1 E0 00 20 08 00 
     73        43.357 DT     007F Rx 8  00 00 FF F0 00 00 00 00 
     74        43.619 DT     0213 Rx 8  FF FF 00 0C 00 01 FF 40 
     75        43.918 DT     0216 Rx 8  BF 72 DF 9E AA 00 01 92 
     76        44.184 DT     0217 Rx 8  00 00 00 00 00 00 00 00 
     77        44.454 DT     0415 Rx 8  00 00 F8 EE 08 00 08 00 
     78        44.732 DT     04B0 Rx 8  01 00 FF FE E0 00 00 F1 
     79        45.966 DT     0041 Rx 8  00 00 00 00 00 00 00 00 
     80        46.218 DT     0042 Rx 8  00 00 00 00 00 00 00 00 
     81        47.848 DT     0204 Rx 8  E4 00 7D 00 00 F3 00 00 
     82        48.130 DT     0205 Rx 8  00 04 00 00 00 00 00 00 
     83        48.389 DT     0167 Rx 8  02 7F FF 11 FF E0 00 00 
     84        49.997 DT     0082 Rx 8  80 08 14 00 97 80 20 FF 
     85        50.269 DT     0333 Rx 8  00 00 00 00 00 40 00 00 
     86        50.651 DT     03A8 Rx 8  00 10 27 10 07 25 FE 48 
     87        51.339 DT     03AB Rx 8  02 FF 0F F0 40 00 00 FF 
     88        51.615 DT     03AE Rx 8  00 00 0A 00 00 18 00 00 
     89        51.963 DT     007A Rx 8  00 00 02 C4 BC 70 00 00 
     90        52.208 DT     007B Rx 8  80 02 CB 10 00 00 00 00 
     91        53.036 DT     0217 Rx 8  00 00 00 00 00 00 00 00 
     92        54.274 DT     0326 Rx 8  01 98 02 6E 01 D0 00 C8 
     93        55.170 DT     0430 Rx 8  03 02 6B 32 80 41 32 90 
     94        55.439 DT     0375 Rx 8  54 FD 00 00 00 00 7F FF 
     95        55.711 DT     0434 Rx 8  20 00 14 00 04 F7 00 00 
     96        55.951 DT     012F Rx 8  62 F2 3F FF FF FF FF FF 
     97        56.197 DT     007E Rx 8  00 00 44 B8 00 0C 00 00 
     98        56.435 DT     03A3 Rx 8  68 F2 41 ED 00 00 00 00 
     99        56.683 DT     0083 Rx 8  00 E0 80 00 02 08 00 00 
    100        56.915 DT     042B Rx 8  D7 C0 80 BA 56 3C E6 00 
    101        57.157 DT     042C Rx 8  84 02 00 00 1B 10 00 00 
    102        57.406 DT     0435 Rx 8  00 00 00 00 00 20 00 00 
    103        57.676 DT     0332 Rx 8  00 02 00 00 00 00 10 00 
    104        58.208 DT     033D Rx 8  00 00 00 00 00 00 00 00 
    105        58.458 DT     0047 Rx 8  20 00 00 00 00 00 00 00 
    106        58.690 DT     043D Rx 8  40 0B DC 0D 05 86 02 B1 
    107        58.944 DT     0048 Rx 8  20 00 00 00 00 00 00 00 
    108        59.187 DT     0167 Rx 8  02 7F FF 11 FF E0 00 00 
    109        59.511 DT     0202 Rx 8  07 F2 50 00 60 00 00 00 
    110        59.771 DT     0204 Rx 8  E8 00 7D 00 00 F2 00 00 
    111        60.039 DT     0205 Rx 8  00 04 00 00 00 00 00 00 
    112        60.305 DT     0230 Rx 8  00 00 00 00 FE 00 00 03 
    113        60.571 DT     025B Rx 8  01 F4 09 F4 E0 00 80 00 
    114        60.840 DT     047E Rx 8  01 02 16 39 1D 04 0B 00 
    115        62.178 DT     007A Rx 8  00 00 02 C3 BC 70 00 00 
    116        62.426 DT     007B Rx 8  80 02 CB 0C 00 00 00 00 
    117        62.834 DT     04B0 Rx 8  01 00 FF FE F0 00 00 F0 
    118        63.287 DT     007D Rx 8  00 00 F0 F0 00 20 08 02 
    119        63.555 DT     007F Rx 8  00 00 FF F0 00 00 00 00 
    120        63.815 DT     0213 Rx 8  FF FF 00 0C 00 01 FF 40 
    121        64.081 DT     0216 Rx 8  BF 72 DF 9E AA 00 02 3F 
    122        64.391 DT     0217 Rx 8  00 00 00 00 00 00 00 00 
    123        64.666 DT     0415 Rx 8  00 00 FC ED 08 00 08 00 
    124        66.136 DT     0041 Rx 8  00 00 00 00 00 00 00 00 
    125        66.388 DT     0042 Rx 8  00 00 00 00 00 00 00 00 
    126        67.872 DT     0204 Rx 8  EC 00 7D 00 00 F1 00 00 
    127        68.154 DT     0205 Rx 8  00 04 00 00 00 00 00 00 
    128        68.412 DT     0167 Rx 8  02 7F FF 11 FF E0 00 00 
    129        69.372 DT     03A8 Rx 8  00 10 27 10 07 25 FE 48 
    130        70.049 DT     0082 Rx 8  80 08 14 00 97 80 20 FF 
    131        71.363 DT     012E Rx 8  C9 19 E3 FF FF FF FF FF 
    132        72.115 DT     007A Rx 8  00 00 02 C3 BC 70 00 00 
    133        72.359 DT     007B Rx 8  80 02 CB 0C 00 00 00 00 
    134        72.600 DT     004C Rx 8  20 AA BF 1E C7 F1 00 00 
    135        73.060 DT     0217 Rx 8  00 00 00 00 00 00 00 00 
    136        75.000 DT     007E Rx 8  00 00 44 B8 00 0C 00 00 
    137        75.794 DT     0242 Rx 8  FF FF 20 0C D7 00 03 01 
    138        76.026 DT     042E Rx 8  65 B0 80 32 C0 62 00 00 
    139        78.078 DT     0202 Rx 8  07 F0 60 00 60 00 00 00 
    140        78.426 DT     0047 Rx 8  20 00 00 00 00 00 00 00 
    141        78.685 DT     005C Rx 8  83 CC 00 ED 20 91 00 00 
    142        78.989 DT     0167 Rx 8  02 7F FF 11 FF E0 00 00 
    143        79.245 DT     0176 Rx 8  00 0C F2 10 00 00 00 00 
    144        79.495 DT     0185 Rx 8  05 A0 75 48 B1 40 00 00 
    145        79.805 DT     0203 Rx 8  40 00 00 00 00 00 00 00 
    146        80.121 DT     0204 Rx 8  F0 00 7D 00 00 F0 00 00 
    147        80.402 DT     0205 Rx 8  00 04 00 00 00 00 00 00 
    148        80.672 DT     0230 Rx 8  00 00 00 00 FE 00 00 03 
    149        80.926 DT     0048 Rx 8  20 00 00 00 00 00 00 00 
    150        81.170 DT     025A Rx 8  00 01 90 00 00 00 00 00 
    151        81.434 DT     025B Rx 8  01 F4 09 F4 E0 00 80 00 
    152        81.706 DT     0410 Rx 8  00 00 40 01 61 FF 83 40 
    153        82.591 DT     007A Rx 8  00 00 02 C4 BC 70 00 00 
    154        82.835 DT     007B Rx 8  80 02 CB 10 00 00 00 00 
    155        83.065 DT     024B Rx 8  02 E4 06 41 4F 0E AC BE 
    156        83.298 DT     024C Rx 8  4B A0 97 1C A9 00 9C 00 
    157        83.528 DT     0286 Rx 8  0C D0 1B A4 0C 2C 1B 5E 
    158        83.776 DT     02E4 Rx 8  08 C0 FF 80 00 00 00 00 
    159        84.018 DT     039B Rx 8  FE 00 2F FE FF E2 C4 00 
    160        84.263 DT     046F Rx 8  13 88 00 00 00 00 00 00 
    161        84.489 DT     0490 Rx 8  B7 8B 78 B7 8B 79 B7 90 
    162        84.711 DT     0491 Rx 8  B7 9B 78 B7 8B 78 B7 90 
    163        84.938 DT     0492 Rx 8  B7 9B 7A B7 9B 79 B7 80 
    164        85.162 DT     0493 Rx 8  B7 8B 79 B7 AB 79 B7 90 
    165        85.388 DT     0494 Rx 8  B7 AB 79 B7 9B 79 B7 90 
    166        85.615 DT     0495 Rx 8  B7 9B 7A B7 AB 79 B7 A0 
    167        85.839 DT     0496 Rx 8  B7 9B 79 B7 9B 7A B7 80 
    168        86.091 DT     0041 Rx 8  00 00 00 00 00 00 00 00 
    169        86.343 DT     0042 Rx 8  00 00 00 00 00 00 00 00 
    170        86.565 DT     0497 Rx 8  B7 9B 7A B7 9B 79 B7 90 
    171        86.794 DT     0498 Rx 8  B7 6B 77 B7 7B 77 B7 60 
    172        87.016 DT     0499 Rx 8  B7 7B 77 B7 6B 76 B7 70 
    173        87.243 DT     049A Rx 8  B7 7B 77 B7 8B 77 B7 70 
    174        87.469 DT     049B Rx 8  B7 8B 78 B7 8B 78 B7 80 
    175        87.695 DT     049C Rx 8  B7 9B 79 B7 9B 78 B7 90 
    176        87.943 DT     04B0 Rx 8  01 00 FF FE 00 00 00 FF 
    177        88.168 DT     049D Rx 8  B7 8B 79 B7 AB 78 B7 80 
    178        88.414 DT     007D Rx 8  00 00 FF 00 00 20 08 00 
    179        88.640 DT     049E Rx 8  B7 9B 78 B7 9B 79 B7 80 
    180        88.893 DT     007F Rx 8  00 00 FF F0 00 00 00 00 
    181        89.119 DT     049F Rx 8  B7 8B 79 B7 8B 78 B7 90 
    182        89.361 DT     0167 Rx 8  02 7F FF 11 FF E0 00 00 
    183        89.605 DT     02E7 Rx 8  FF FC FF 80 00 00 00 00 
    184        89.850 DT     0204 Rx 8  F4 00 7D 00 00 EF 00 00 
    185        90.076 DT     04A0 Rx 8  B7 9B 78 B7 8B 78 B7 80 
    186        90.318 DT     0082 Rx 8  80 08 14 00 97 80 20 FF 
    187        90.542 DT     04A1 Rx 8  B7 8B 78 B7 7B 78 B7 80 
    188        90.795 DT     0205 Rx 8  00 04 00 00 00 00 00 00 
    189        91.033 DT     0411 Rx 8  00 00 10 B1 AB AA 00 00 
    190        91.275 DT     0213 Rx 8  FF FF 00 0C 00 01 FF 40 
    191        91.523 DT     04A2 Rx 8  FF EF FE FF EF FE FF E0 
    192        91.757 DT     0216 Rx 8  BF 72 DF 9E AA 00 03 77 
    193        91.986 DT     04A3 Rx 8  FF E0 4B 4B 4B 4B 4B 4B 
    194        92.234 DT     0217 Rx 8  00 00 00 00 00 00 00 00 
    195        92.466 DT     04A4 Rx 8  4B 4B 4B 4B FE FE FE 00 
    196        92.703 DT     03A8 Rx 8  00 10 27 10 07 25 FE 48 
    197        92.947 DT     007A Rx 8  00 00 02 C3 BC 70 00 00 
    198        93.191 DT     007B Rx 8  80 02 CB 0C 00 00 00 00 
    199        93.440 DT     0217 Rx 8  00 00 00 00 00 00 00 00 
    200        93.680 DT     04A7 Rx 8  FE FE FE FE FE FE 00 00 
    201        93.914 DT     03D9 Rx 8  19 8C FE 20 40 18 00 F7 
    202        94.188 DT     0415 Rx 8  00 00 C0 FC 08 00 08 00 
    203        95.238 DT     007E Rx 8  00 00 44 B8 00 0C 00 00 
    204        96.427 DT     005A Rx 8  00 00 00 0B F6 41 10 00 
    205        97.711 DT     036E Rx 8  00 02 05 00 00 00 00 00 
    206        97.991 DT     0156 Rx 8  4B 00 00 00 01 00 00 00 
    207        98.289 DT     0047 Rx 8  20 00 00 00 00 00 00 00 
    208        98.549 DT     0167 Rx 8  02 7F FF 11 FF E0 00 00 
    209        98.870 DT     0178 Rx 8  01 2C 02 00 4E 5F C2 5F 
    210        99.308 DT     0202 Rx 8  07 EE 70 00 60 00 00 00 
    211        99.562 DT     02EC Rx 8  00 00 00 00 01 61 00 00 
    212        99.810 DT     0204 Rx 8  F8 00 7D 00 00 EE 00 00 
    213       100.116 DT     0205 Rx 8  00 04 00 00 00 00 00 00 
    214       100.464 DT     0230 Rx 8  00 00 00 00 FE 00 00 03 
    215       100.726 DT     025B Rx 8  01 F4 09 F4 E0 00 80 00 
    216       101.017 DT     0421 Rx 8  00 00 10 00 00 00 38 00 
    217       101.289 DT     042D Rx 8  00 01 B8 28 37 00 00 00 
    218       101.589 DT     043E Rx 8  00 73 00 00 00 00 00 00 
    219       101.873 DT     043F Rx 8  00 00 00 00 00 00 00 00 
    220       102.157 DT     044C Rx 8  FE 00 00 00 00 00 00 00 
    221       102.471 DT     0455 Rx 8  00 80 00 00 00 00 00 00 
    222       102.716 DT     007A Rx 8  00 00 02 C4 BC 70 00 00 
    223       102.970 DT     0048 Rx 8  20 00 00 00 00 00 00 00 
    224       103.214 DT     007B Rx 8  80 02 CB 10 00 00 00 00 
    225       103.466 DT     0480 Rx 8  40 00 00 00 00 00 00 00 
    226       103.745 DT     007D Rx 8  00 00 FE 10 00 1F F8 00 
    227       104.009 DT     007F Rx 8  00 00 FF F0 00 00 00 00 
    228       104.267 DT     0213 Rx 8  FF FF 00 0C 00 01 FF 40 
    229       104.513 DT     0216 Rx 8  BF 72 DF 9E AA 00 04 52 
    230       104.779 DT     0217 Rx 8  00 00 00 00 00 00 00 00 
    231       105.049 DT     0415 Rx 8  00 00 C4 FB 08 00 08 00 
    232       105.328 DT     04B0 Rx 8  01 00 FF FE 10 00 00 FE 
    233       106.102 DT     0041 Rx 8  00 00 00 00 00 00 00 00 
    234       106.354 DT     0042 Rx 8  00 00 00 00 00 00 00 00 
    235       106.600 DT     03B6 Rx 8  08 00 08 00 00 00 00 00 
    236       106.840 DT     03B7 Rx 8  00 00 02 00 60 46 D2 92 
    237       107.082 DT     042C Rx 8  84 02 00 00 1B 10 00 00 
    238       107.878 DT     0204 Rx 8  FC 00 7D 00 00 ED 00 00 
    239       108.160 DT     0205 Rx 8  00 04 00 00 00 00 00 00 
    240       108.392 DT     043D Rx 8  40 0B DC 0D 05 86 02 B1 
    241       108.635 DT     0167 Rx 8  02 7F FF 11 FF E0 00 00 
    242       109.381 DT     03A8 Rx 8  00 10 27 10 07 25 FE 48 
    243       109.995 DT     0082 Rx 8  80 08 14 00 97 80 20 FF 
    244       112.121 DT     007A Rx 8  00 00 02 C4 BC 70 00 00 
    245       112.366 DT     007B Rx 8  80 02 CB 10 00 00 00 00 
    246       113.022 DT     0217 Rx 8  00 00 00 00 00 00 00 00 
    247       114.950 DT     007E Rx 8  00 00 44 B8 00 0C 00 00 
    248       115.798 DT     0242 Rx 8  FF FF 20 0C D7 00 03 01 
    249       116.040 DT     03A3 Rx 8  18 FC 41 F7 00 00 00 00 
    250       116.272 DT     042E Rx 8  65 B0 80 32 C0 62 00 00 
    251       118.072 DT     0047 Rx 8  20 00 00 00 00 00 00 00 
    252       118.380 DT     0167 Rx 8  02 7F FF 11 FF E0 00 00 
    253       118.684 DT     0202 Rx 8  07 FC 00 00 60 00 00 00 
    254       118.947 DT     0204 Rx 8  C0 00 7D 00 00 FC 00 00 
    255       119.237 DT     0205 Rx 8  00 04 00 00 00 00 00 00 
    256       119.503 DT     0230 Rx 8  00 00 00 00 FE 00 00 03 
    257       119.763 DT     025B Rx 8  01 F4 09 F4 E0 00 80 00 
    258       122.191 DT     007A Rx 8  00 00 02 C4 BC 70 00 00 
    259       122.534 DT     007B Rx 8  80 02 8B 10 00 00 00 00 
    260       122.783 DT     04B0 Rx 8  01 00 FF FE 20 00 00 FD 
    261       123.237 DT     007D Rx 8  00 00 FD 20 00 1F F8 00 
    262       123.505 DT     007F Rx 8  00 00 FF F0 00 00 00 00 
    263       123.769 DT     0213 Rx 8  FF FF 00 0C 00 01 FF 40 
    264       124.055 DT     0216 Rx 8  BF 72 DF 9E AA 00 05 4C 
    265       124.319 DT     0217 Rx 8  00 00 00 00 00 00 00 00 
    266       124.587 DT     0415 Rx 8  00 00 C8 FA 08 00 08 00 
    267       124.842 DT     0048 Rx 8  20 00 00 00 00 00 00 00 
    268       126.244 DT     0041 Rx 8  00 00 00 00 00 00 00 00 
    269       126.496 DT     0042 Rx 8  00 00 00 00 00 00 00 00 
    270       127.806 DT     0204 Rx 8  C4 00 7D 00 00 FB 00 00 
    271       128.082 DT     0205 Rx 8  00 04 00 00 00 00 00 00 
    272       128.366 DT     0167 Rx 8  02 7F FF 11 FF E0 00 00 
    273       129.341 DT     03A8 Rx 8  00 10 27 10 07 25 FE 48 
    274       130.023 DT     0082 Rx 8  80 08 14 00 97 80 20 FF 
    275       130.271 DT     036F Rx 8  00 00 00 00 00 00 00 00 
    276       130.563 DT     04DF Rx 8  50 F5 00 00 00 00 00 00 
    277       132.121 DT     007A Rx 8  00 00 02 C3 BC 70 00 00 
    278       132.368 DT     007B Rx 8  80 02 8B 0C 00 00 00 00 
    279       133.002 DT     0217 Rx 8  00 00 00 00 00 00 00 00 
    280       134.928 DT     007E Rx 8  00 00 44 B8 00 0C 00 00 
    281       138.058 DT     0047 Rx 8  20 00 00 00 00 00 00 00 
    282       138.314 DT     0167 Rx 8  02 7F FF 11 FF E0 00 00 
    283       138.573 DT     0202 Rx 8  07 FA 10 00 60 00 00 00 
    284       138.881 DT     0204 Rx 8  C8 00 7D 00 00 FA 00 00 
    285       139.149 DT     0205 Rx 8  00 04 00 00 00 00 00 00 
    286       139.415 DT     0230 Rx 8  00 00 00 00 FE 00 00 03 
    287       139.675 DT     025B Rx 8  01 F4 09 F4 E0 00 80 00 
    288       141.999 DT     007A Rx 8  00 00 02 C4 BC 70 00 00 
    289       142.244 DT     007B Rx 8  80 02 CB 10 00 00 00 00 
    290       143.026 DT     007D Rx 8  00 00 FC 30 00 1F F7 FE 
    291       143.294 DT     007F Rx 8  00 00 FF F0 00 00 00 00 
    292       143.554 DT     0213 Rx 8  FF FF 00 0C 00 01 FF 40 
    293       143.852 DT     0216 Rx 8  BF 72 DF 9E AA 00 06 33 
    294       144.121 DT     0217 Rx 8  00 00 00 00 00 00 00 00 
    295       144.391 DT     0415 Rx 8  00 00 CC F9 08 00 08 00 
    296       144.667 DT     04B0 Rx 8  01 00 FF FE 30 00 00 FC 
    297       146.305 DT     0041 Rx 8  00 00 00 00 00 00 00 00 
    298       146.557 DT     0042 Rx 8  00 00 00 00 00 00 00 00 
    299       146.823 DT     0048 Rx 8  20 00 00 00 00 00 00 00 
    300       147.816 DT     0204 Rx 8  CC 00 7D 00 00 F9 00 00 
    301       148.096 DT     0205 Rx 8  00 04 00 00 00 00 00 00 
    302       148.434 DT     0167 Rx 8  02 80 00 11 FF E0 00 00 
    303       150.026 DT     0082 Rx 8  80 08 14 00 97 80 20 FF 
    304       150.296 DT     0333 Rx 8  00 00 00 00 00 40 00 00 
    305       150.552 DT     03A8 Rx 8  00 10 27 10 07 25 FE 48 
    306       151.154 DT     03D9 Rx 8  19 8C FE 38 40 18 00 F1 
    307       151.867 DT     007A Rx 8  00 00 02 C4 BC 70 00 00 
    308       152.111 DT     007B Rx 8  80 02 CB 10 00 00 00 00 
    309       152.927 DT     0217 Rx 8  00 00 00 00 00 00 00 00 
    310       154.145 DT     0326 Rx 8  01 98 02 6E 01 D0 00 C8 
    311       155.021 DT     0430 Rx 8  03 02 6B 32 80 41 32 90 
    312       155.311 DT     0434 Rx 8  20 00 14 00 04 F7 00 00 
    313       155.570 DT     007E Rx 8  00 00 44 B8 00 0C 00 00 
    314       155.816 DT     0242 Rx 8  FF FF 20 0C D7 00 03 01 
    315       156.064 DT     012F Rx 8  3F F3 3F FF FF FF FF FF 
    316       156.294 DT     042B Rx 8  D7 C0 80 CA 56 3C E6 00 
    317       156.544 DT     026E Rx 8  00 00 00 00 00 00 00 00 
    318       156.786 DT     042C Rx 8  84 02 00 00 1B 10 00 00 
    319       157.036 DT     037E Rx 8  00 08 00 00 00 00 00 00 
    320       157.285 DT     0435 Rx 8  00 00 00 00 00 20 00 00 
    321       157.527 DT     03A4 Rx 8  64 C3 43 FF FF FF FF FF 
    322       157.775 DT     0083 Rx 8  00 E0 80 00 02 08 00 00 
    323       158.005 DT     040A Rx 8  C1 00 31 46 54 56 57 31 
    324       158.251 DT     0332 Rx 8  00 02 00 00 00 00 10 00 
    325       158.501 DT     033D Rx 8  00 00 00 00 00 00 00 00 
    326       158.751 DT     0047 Rx 8  20 00 00 00 00 00 00 00 
    327       158.983 DT     042E Rx 8  65 B0 80 32 C0 62 00 00 
    328       159.225 DT     0167 Rx 8  02 7F FF 11 FF E0 00 00 
    329       159.461 DT     043D Rx 8  40 0A DC 0C 04 86 02 B1 
    330       159.711 DT     0202 Rx 8  07 F8 20 00 60 00 00 00 
    331       159.964 DT     0468 Rx 8  00 00 00 00 00 20 00 00 
    332       160.212 DT     0204 Rx 8  D0 00 7D 00 00 F8 00 00 
    333       160.460 DT     0469 Rx 8  00 00 00 00 00 00 00 00 
    334       160.712 DT     0205 Rx 8  00 04 00 00 00 00 00 00 
    335       160.976 DT     0230 Rx 8  00 00 00 00 FE 00 00 03 
    336       161.236 DT     025B Rx 8  01 F4 09 F4 E0 00 80 00 
    337       161.497 DT     047E Rx 8  14 92 79 01 60 00 54 B0 
    338       162.439 DT     007A Rx 8  00 00 02 C3 BC 70 00 00 
    339       162.685 DT     007B Rx 8  80 02 8B 0C 00 00 00 00 
    340       162.932 DT     04B0 Rx 8  01 00 FF FE 40 00 00 FB 
    341       163.244 DT     007D Rx 8  00 00 FB 40 00 1F D8 00 
    342       163.514 DT     007F Rx 8  00 00 FF F0 00 00 00 00 
    343       163.820 DT     0213 Rx 8  FF FF 00 0C 00 01 FF 40 
    344       164.068 DT     0216 Rx 8  BF 72 DF 9E AA 00 07 38 
    345       164.402 DT     0217 Rx 8  00 00 00 00 00 00 00 00 
    346       164.742 DT     0415 Rx 8  00 00 D0 F8 08 00 08 00 
    347       165.818 DT     0041 Rx 8  00 00 00 00 00 00 00 00 
    348       166.071 DT     0042 Rx 8  00 00 00 00 00 00 00 00 
    349       167.829 DT     0204 Rx 8  D4 00 7D 00 00 F7 00 00 
    350       168.105 DT     0205 Rx 8  00 04 00 00 00 00 00 00 
    351       168.375 DT     0167 Rx 8  02 7F FF 11 FF E0 00 00 
    352       168.813 DT     0048 Rx 8  20 00 00 00 00 00 00 00 
    353       169.333 DT     03E2 Rx 8  00 01 00 30 80 40 00 00 
    354       169.616 DT     03A8 Rx 8  00 10 27 10 07 25 FE 48 
    355       170.056 DT     0082 Rx 8  80 08 14 00 97 80 20 FF 
    356       171.370 DT     012E Rx 8  2E 1A E3 FF FF FF FF FF 
    357       172.112 DT     007A Rx 8  00 00 02 C3 BC 70 00 00 
    358       172.357 DT     007B Rx 8  80 02 CB 0C 00 00 00 00 
    359       172.599 DT     004C Rx 8  20 AA BF 1E C1 F7 00 00 
    360       173.023 DT     0217 Rx 8  00 00 00 00 00 00 00 00 
    361       174.973 DT     007E Rx 8  00 00 44 B8 00 0C 00 00 
    362       175.821 DT     03A3 Rx 8  48 F6 41 F1 00 00 00 00 
    363       178.083 DT     0202 Rx 8  07 F6 30 00 60 00 00 00 
    364       178.434 DT     0047 Rx 8  20 00 00 00 00 00 00 00 
    365       178.718 DT     005C Rx 8  83 6C 00 F3 20 91 00 00 
    366       178.992 DT     0167 Rx 8  02 7F FF 11 FF E0 00 00 
    367       179.252 DT     0176 Rx 8  00 06 F8 10 00 00 00 00 
    368       179.502 DT     0185 Rx 8  05 A0 75 48 B1 40 00 00 
    369       179.788 DT     0203 Rx 8  40 00 00 00 00 00 00 00 
    370       180.048 DT     0204 Rx 8  D8 00 7D 00 00 F6 00 00 
    371       180.415 DT     0205 Rx 8  00 04 00 00 00 00 00 00 
    372       180.683 DT     0230 Rx 8  00 00 00 00 FE 00 00 03 
    373       180.947 DT     025A Rx 8  00 01 90 00 00 00 00 00 
    374       181.241 DT     025B Rx 8  01 F4 09 F4 E0 00 80 00 
    375       181.521 DT     0410 Rx 8  00 00 40 01 41 FF 83 40 
    376       182.602 DT     007A Rx 8  00 00 02 C4 BC 70 00 00 
    377       182.848 DT     007B Rx 8  80 02 8B 10 00 00 00 00 
    378       183.078 DT     024B Rx 8  02 E4 06 41 4F 0E AC BE 
    379       183.310 DT     024C Rx 8  4B A0 97 1C A9 00 9C 00 
    380       183.541 DT     0286 Rx 8  0C D0 1B A4 0C 2C 1B 5E 
    381       183.789 DT     02E4 Rx 8  08 C0 FF 80 00 00 00 00 
    382       184.031 DT     039B Rx 8  FE 00 2F FE FF E2 C4 00 
    383       184.275 DT     046F Rx 8  13 88 00 00 00 00 00 00 
    384       184.502 DT     0490 Rx 8  B7 8B 78 B7 8B 78 B7 90 
    385       184.726 DT     0491 Rx 8  B7 8B 79 B7 9B 78 B7 90 
    386       184.950 DT     0492 Rx 8  B7 AB 7B B7 8B 7A B7 80 
    387       185.177 DT     0493 Rx 8  B7 9B 79 B7 AB 79 B7 90 
    388       185.401 DT     0494 Rx 8  B7 9B 79 B7 9B 79 B7 90 
    389       185.625 DT     0495 Rx 8  B7 9B 79 B7 AB 79 B7 A0 
    390       185.850 DT     0496 Rx 8  B7 9B 78 B7 9B 7A B7 A0 
    391       186.074 DT     0497 Rx 8  B7 9B 78 B7 9B 79 B7 80 
    392       186.326 DT     0041 Rx 8  00 00 00 00 00 00 00 00 
    393       186.578 DT     0042 Rx 8  00 00 00 00 00 00 00 00 
    394       186.805 DT     0498 Rx 8  B7 6B 77 B7 6B 77 B7 70 
    395       187.031 DT     0499 Rx 8  B7 7B 76 B7 7B 76 B7 60 
    396       187.253 DT     049A Rx 8  B7 7B 77 B7 8B 78 B7 70 
    397       187.476 DT     049B Rx 8  B7 7B 77 B7 8B 78 B7 70 
    398       187.702 DT     049C Rx 8  B7 9B 79 B7 9B 79 B7 90 
    399       187.950 DT     04B0 Rx 8  01 00 FF FE 50 00 00 FA 
    400       188.175 DT     049D Rx 8  B7 7B 79 B7 8B 7A B7 70 
    401       188.419 DT     007D Rx 8  00 00 FA 50 00 20 08 00 
    402       188.643 DT     049E Rx 8  B7 8B 78 B7 8B 79 B7 90 
    403       188.896 DT     007F Rx 8  00 00 FF F0 00 00 00 00 
    404       189.122 DT     049F Rx 8  B7 9B 79 B7 8B 78 B7 90 
    405       189.364 DT     0167 Rx 8  02 7F FF 11 FF E0 00 00 
    406       189.608 DT     02E7 Rx 8  FF FC FF 80 00 00 00 00 
    407       189.852 DT     0204 Rx 8  DC 00 7D 00 00 F5 00 00 
    408       190.081 DT     04A0 Rx 8  B7 9B 79 B7 8B 77 B7 80 
    409       190.333 DT     0205 Rx 8  00 04 00 00 00 00 00 00 
    410       190.559 DT     04A1 Rx 8  B7 8B 78 B7 7B 77 B7 90 
    411       190.795 DT     0082 Rx 8  81 08 14 04 97 80 20 FF 
    412       191.050 DT     0048 Rx 8  20 00 00 00 00 00 00 00 
    413       191.292 DT     0213 Rx 8  FF FF 00 0C 00 01 FF 40 
    414       191.530 DT     0411 Rx 8  00 00 10 B1 AB AA 00 00 
    415       191.762 DT     0216 Rx 8  BF 72 DF 9E AA 00 08 2D 
    416       192.010 DT     04A2 Rx 8  FF EF FE FF EF FE FF E0 
    417       192.259 DT     0217 Rx 8  00 00 00 00 00 00 00 00 
    418       192.487 DT     04A3 Rx 8  FF E0 4B 4B 4B 4B 4B 4B 
    419       192.723 DT     03A8 Rx 8  00 10 27 10 07 25 FE 48 
    420       192.968 DT     007A Rx 8  00 00 02 C3 BC 70 00 00 
    421       193.214 DT     007B Rx 8  80 02 8B 0C 00 00 00 00 
    422       193.462 DT     0217 Rx 8  00 00 00 00 00 00 00 00 
    423       193.695 DT     04A4 Rx 8  4B 4B 4B 4B FE FE FE 00 
    424       193.935 DT     0415 Rx 8  00 00 D4 F7 08 00 08 00 
    425       194.175 DT     04A7 Rx 8  FE FE FE FE FE FE 00 00 
    426       195.377 DT     007E Rx 8  00 00 44 B8 00 0C 00 00 
    427       195.817 DT     0242 Rx 8  FF FF 20 0C D7 00 03 01 
    428       196.050 DT     042E Rx 8  65 B0 80 32 C0 62 00 00 
    429       196.420 DT     005A Rx 8  00 00 00 0B EC E1 10 00 
    430       197.844 DT     0156 Rx 8  4B 00 00 00 01 00 00 00 
    431       198.106 DT     0047 Rx 8  20 00 00 00 00 00 00 00 
    432       198.376 DT     0167 Rx 8  02 7F FF 11 FF E0 00 00 
    433       198.680 DT     0178 Rx 8  01 2C 02 00 4E 5F C2 5F 
    434       199.114 DT     0202 Rx 8  07 F4 40 00 60 00 00 00 
    435       199.380 DT     0204 Rx 8  E0 00 7D 00 00 F4 00 00 
    436       199.626 DT     02EC Rx 8  00 00 00 00 01 61 00 00 
    437       199.879 DT     0205 Rx 8  00 04 00 00 00 00 00 00 
    438       200.167 DT     0230 Rx 8  00 00 00 00 FE 00 00 03 
    439       200.499 DT     025B Rx 8  01 F4 09 F4 E0 00 80 00 
    440       200.773 DT     0421 Rx 8  00 00 10 00 00 00 38 00 
    441       201.045 DT     042D Rx 8  00 01 B8 27 37 00 00 00 
    442       201.323 DT     043E Rx 8  00 73 00 00 00 00 00 00 
    443       201.599 DT     0455 Rx 8  00 80 00 00 00 00 00 00 
    444       202.442 DT     007A Rx 8  00 00 02 C4 BC 70 00 00 
    445       202.686 DT     007B Rx 8  80 02 CB 10 00 00 00 00 
    446       202.934 DT     04B0 Rx 8  01 00 FF FE 60 00 00 F9 
    447       203.222 DT     007D Rx 8  00 00 F9 60 00 1F F8 00 
    448       203.488 DT     007F Rx 8  00 00 FF F0 00 00 00 00 
    449       203.783 DT     0213 Rx 8  FF FF 00 0C 00 01 FF 40 
    450       204.031 DT     0216 Rx 8  BF 72 DF 9E AA 00 09 31 
    451       204.297 DT     0217 Rx 8  00 00 00 00 00 00 00 00 
    452       204.575 DT     0415 Rx 8  00 00 D8 F6 08 00 08 00 
    453       205.619 DT     028A Rx 8  0E D4 00 00 00 00 00 00 
    454       206.011 DT     0041 Rx 8  00 00 00 00 00 00 00 00 
    455       206.263 DT     0042 Rx 8  00 00 00 00 00 00 00 00 
    456       206.505 DT     042C Rx 8  84 02 00 00 1B 10 00 00 
    457       207.867 DT     0204 Rx 8  E4 00 7D 00 00 F3 00 00 
    458       208.113 DT     043D Rx 8  40 0A DC 0B 04 86 02 B1 
    459       208.365 DT     0205 Rx 8  00 04 00 00 00 00 00 00 
    460       208.630 DT     0167 Rx 8  02 7F FF 11 FF E0 00 00 
    461       209.388 DT     03A8 Rx 8  00 10 27 10 07 25 FE 48 
    462       210.069 DT     0082 Rx 8  80 08 14 04 97 80 20 FF 
    463       210.403 DT     03D9 Rx 8  19 8C FE 10 40 18 00 FB 
    464       212.117 DT     007A Rx 8  00 00 02 C4 BC 70 00 00 
    465       212.362 DT     007B Rx 8  80 02 CB 10 00 00 00 00 
    466       212.830 DT     0048 Rx 8  20 00 00 00 00 00 00 00 
    467       213.078 DT     0217 Rx 8  00 00 00 00 00 00 00 00 
    468       214.977 DT     007E Rx 8  00 00 44 B8 00 0C 00 00 
    469       218.075 DT     0047 Rx 8  20 00 00 00 00 00 00 00 
    470       218.377 DT     0167 Rx 8  02 7F FF 11 FF E0 00 00 
    471       218.691 DT     0202 Rx 8  07 F2 50 00 60 00 00 00 
    472       218.949 DT     0204 Rx 8  E8 00 7D 00 00 F2 00 00 
    473       219.219 DT     0205 Rx 8  00 04 00 00 00 00 00 00 
    474       219.485 DT     0230 Rx 8  00 00 00 00 FE 00 00 03 
    475       219.749 DT     025B Rx 8  01 F4 09 F4 E0 00 80 00 
    476       222.186 DT     007A Rx 8  00 00 02 C3 BC 70 00 00 
    477       222.528 DT     007B Rx 8  80 02 CB 0C 00 00 00 00 
    478       222.952 DT     007D Rx 8  00 00 F8 70 00 20 08 00 
    479       223.220 DT     007F Rx 8  00 00 FF F0 00 00 00 00 
    480       223.478 DT     0213 Rx 8  FF FF 00 0C 00 01 FF 40 
    481       223.796 DT     0216 Rx 8  BF 72 DF 9E AA 00 0A 34 
    482       224.062 DT     0217 Rx 8  00 00 00 00 00 00 00 00 
    483       224.363 DT     0415 Rx 8  00 00 DC F5 08 00 08 00 
    484       224.639 DT     04B0 Rx 8  01 00 FF FE 70 00 00 F8 
    485       226.467 DT     0041 Rx 8  00 00 00 00 00 00 00 00 
    486       226.719 DT     0042 Rx 8  00 00 00 00 00 00 00 00 
    487       227.817 DT     0204 Rx 8  EC 00 7D 00 00 F1 00 00 
    488       228.095 DT     0205 Rx 8  00 04 00 00 00 00 00 00 
    489       228.422 DT     0167 Rx 8  02 80 00 11 FF E0 00 00 
    490       229.344 DT     03A8 Rx 8  00 10 27 10 07 25 FE 48 
    491       229.966 DT     04DF Rx 8  20 FB 00 00 00 00 00 00 
    492       230.206 DT     0082 Rx 8  80 08 14 04 97 80 20 FF 
    493       232.119 DT     007A Rx 8  00 00 02 C3 BC 70 00 00 
    494       232.363 DT     007B Rx 8  80 02 CB 0C 00 00 00 00 
    495       232.805 DT     0217 Rx 8  00 00 00 00 00 00 00 00 
    496       234.818 DT     0048 Rx 8  20 00 00 00 00 00 00 00 
    497       235.064 DT     007E Rx 8  00 00 44 B8 00 0C 00 00 
    498       235.794 DT     0242 Rx 8  FF FF 20 0B D7 00 03 01 
    499       236.034 DT     03A3 Rx 8  78 F0 41 EB 00 00 00 00 
    500       236.266 DT     042E Rx 8  65 B0 80 2E C0 62 00 00 
    501       238.072 DT     0047 Rx 8  20 00 00 00 00 00 00 00 
    502       238.368 DT     0167 Rx 8  02 80 00 11 FF E0 00 00 
    503       238.671 DT     0202 Rx 8  07 F0 60 00 60 00 00 00 
    504       238.931 DT     0204 Rx 8  F0 00 7D 00 00 F0 00 00 
    505       239.227 DT     0205 Rx 8  00 04 00 00 00 00 00 00 
    506       239.505 DT     0230 Rx 8  00 00 00 00 FE 00 00 03 
    507       239.767 DT     025B Rx 8  01 F4 09 F4 E0 00 80 00 
    508       241.993 DT     007A Rx 8  00 00 02 C4 BC 70 00 00 
    509       242.238 DT     007B Rx 8  80 02 CB 10 00 00 00 00 
    510       243.014 DT     007D Rx 8  00 00 F7 80 00 1F F8 00 
    511       243.284 DT     007F Rx 8  00 00 FF F0 00 00 00 00 
    512       243.544 DT     0213 Rx 8  FF FF 00 0C 00 01 FF 40 
    513       243.830 DT     0216 Rx 8  BF 72 DF 9E AA 00 0B 43 
    514       244.097 DT     0217 Rx 8  00 00 00 00 00 00 00 00 
    515       244.393 DT     0415 Rx 8  00 00 E0 F4 08 00 08 00 
    516       244.669 DT     04B0 Rx 8  01 00 FF FE 80 00 00 F7 
    517       245.851 DT     0041 Rx 8  00 00 00 00 00 00 00 00 
    518       246.103 DT     0042 Rx 8  00 00 00 00 00 00 00 00 
    519       247.809 DT     0204 Rx 8  F4 00 7D 00 00 EF 00 00 
    520       248.077 DT     0205 Rx 8  00 04 00 00 00 00 00 00 
    521       248.365 DT     0167 Rx 8  02 7F FF 11 FF E0 00 00 
    522       250.042 DT     0082 Rx 8  80 08 14 00 97 80 20 FF 
    523       250.314 DT     0333 Rx 8  00 00 00 00 00 40 00 00 
    524       250.600 DT     03A8 Rx 8  00 10 27 10 07 25 FE 48 
    525       251.152 DT     03AB Rx 8  02 FF 0F F0 40 00 00 FF 
    526       251.426 DT     03AE Rx 8  00 00 0A 00 00 18 00 00 
    527       251.867 DT     007A Rx 8  00 00 02 C3 BC 70 00 00 
    528       252.111 DT     007B Rx 8  80 02 CB 0C 00 00 00 00 
    529       252.879 DT     0217 Rx 8  00 00 00 00 00 00 00 00 
    530       254.257 DT     0326 Rx 8  01 98 02 6E 01 D0 00 C8 
    531       255.141 DT     0430 Rx 8  03 02 6B 32 80 41 32 90 
    532       255.412 DT     0375 Rx 8  B3 FE 00 00 00 00 7F FF 
    533       255.682 DT     0434 Rx 8  20 00 14 00 04 F7 00 00 
    534       255.924 DT     012F Rx 8  B1 F4 3F FF FF FF FF FF 
    535       256.170 DT     007E Rx 8  00 00 44 B8 00 0C 00 00 
    536       256.402 DT     042B Rx 8  D7 C0 80 BA 56 3C E6 00 
    537       256.650 DT     0083 Rx 8  00 E0 80 00 02 08 00 00 
    538       256.905 DT     0048 Rx 8  20 00 00 00 00 00 00 00 
    539       257.147 DT     042C Rx 8  84 02 00 00 1B 10 00 00 
    540       257.395 DT     0435 Rx 8  00 00 00 00 00 20 00 00 
    541       257.661 DT     0332 Rx 8  00 02 00 00 00 00 10 00 
    542       258.075 DT     0047 Rx 8  20 00 00 00 00 00 00 00 
    543       258.325 DT     033D Rx 8  00 00 00 00 00 00 00 00 
    544       258.567 DT     0167 Rx 8  02 7F FF 11 FF E0 00 00 
    545       258.803 DT     043D Rx 8  40 0A DC 0C 04 86 02 B1 
    546       259.049 DT     0202 Rx 8  07 EE 70 00 60 00 00 00 
    547       259.313 DT     0204 Rx 8  F8 00 7D 00 00 EE 00 00 
    548       259.582 DT     0205 Rx 8  00 04 00 00 00 00 00 00 
    549       259.848 DT     0230 Rx 8  00 00 00 00 FE 00 00 03 
    550       260.108 DT     025B Rx 8  01 F4 09 F4 E0 00 80 00 
    551       260.402 DT     047E Rx 8  2A A0 1E 20 00 75 98 60 
    552       262.106 DT     007A Rx 8  00 00 02 C4 BC 70 00 00 
    553       262.350 DT     007B Rx 8  80 02 CB 10 00 00 00 00 
    554       262.679 DT     04B0 Rx 8  01 00 FF FE 90 00 00 F6 
    555       263.113 DT     007D Rx 8  00 00 F6 90 00 1F F8 00 
    556       263.381 DT     007F Rx 8  00 00 FF F0 00 00 00 00 
    557       263.639 DT     0213 Rx 8  FF FF 00 0C 00 01 FF 40 
    558       263.907 DT     0216 Rx 8  BF 72 DF 9E AA 00 0C 36 
    559       264.171 DT     0217 Rx 8  00 00 00 00 00 00 00 00 
    560       264.440 DT     0415 Rx 8  00 00 E4 F3 08 00 08 00 
    561       266.090 DT     0041 Rx 8  00 00 00 00 00 00 00 00 
    562       266.342 DT     0042 Rx 8  00 00 00 00 00 00 00 00 
    563       267.866 DT     0204 Rx 8  FC 00 7D 00 00 ED 00 00 
    564       268.142 DT     0205 Rx 8  00 04 00 00 00 00 00 00 
    565       268.446 DT     0167 Rx 8  02 7F FF 11 FF E0 00 00 
    566       269.234 DT     03E2 Rx 8  00 00 00 00 80 00 00 00 
    567       269.517 DT     03A8 Rx 8  00 10 27 10 07 25 FE 48 
    568       270.055 DT     0082 Rx 8  80 08 14 04 97 80 20 FF 
    569       270.403 DT     03D9 Rx 8  19 8C FE 28 40 18 00 F5 
    570       271.375 DT     012E Rx 8  73 1B E3 FF FF FF FF FF 
    571       272.447 DT     004C Rx 8  20 AA BF 1E CB ED 00 00 
    572       272.691 DT     007A Rx 8  00 00 02 C4 BC 70 00 00 
    573       272.936 DT     007B Rx 8  80 02 CB 10 00 00 00 00 
    574       273.184 DT     0217 Rx 8  00 00 00 00 00 00 00 00 
    575       275.006 DT     007E Rx 8  00 00 44 B8 00 0C 00 00 
    576       275.790 DT     0242 Rx 8  FF FF 20 0C D7 00 03 01 
    577       276.023 DT     042E Rx 8  65 B0 80 32 C0 62 00 00 
    578       278.129 DT     0202 Rx 8  07 FC 00 00 60 00 00 00 
    579       278.417 DT     0047 Rx 8  20 00 00 00 00 00 00 00 
    580       278.715 DT     005C Rx 8  83 0C 00 F9 20 91 00 00 
    581       278.969 DT     0048 Rx 8  20 00 00 00 00 00 00 00 
    582       279.211 DT     0167 Rx 8  02 80 00 11 FF E0 00 00 
    583       279.500 DT     0176 Rx 8  00 00 FE 10 00 00 00 00 
    584       279.752 DT     0185 Rx 8  05 A0 75 48 B1 40 00 00 
    585       280.074 DT     0203 Rx 8  40 00 00 00 00 00 00 00 
    586       280.456 DT     0204 Rx 8  C0 00 7D 00 00 FC 00 00 
    587       280.750 DT     0205 Rx 8  00 04 00 00 00 00 00 00 
    588       281.018 DT     0230 Rx 8  00 00 00 00 FE 00 00 03 
    589       281.286 DT     025A Rx 8  00 01 90 00 00 00 00 00 
    590       281.549 DT     025B Rx 8  01 F4 09 F4 E0 00 80 00 
    591       281.823 DT     0410 Rx 8  00 00 40 01 41 FF 83 40 
    592       282.647 DT     04B0 Rx 8  01 00 FF FE A0 00 00 F5 
    593       282.891 DT     007A Rx 8  00 00 02 C4 BC 70 00 00 
    594       283.137 DT     007B Rx 8  80 02 8B 10 00 00 00 00 
    595       283.384 DT     007D Rx 8  00 00 F5 A0 00 1F D8 02 
    596       283.614 DT     024B Rx 8  02 E4 06 41 4F 0E AC BE 
    597       283.866 DT     007F Rx 8  00 00 FF F0 00 00 00 00 
    598       284.099 DT     024C Rx 8  4B A0 97 1C A9 00 9C 00 
    599       284.341 DT     0213 Rx 8  FF FF 00 0C 00 01 FF 40 
    600       284.571 DT     0286 Rx 8  0C D0 1B A4 0C 2C 1B 5E 
    601       284.803 DT     0216 Rx 8  BF 72 DF 9E AA 00 0D 30 
    602       285.052 DT     02E4 Rx 8  08 C0 FF 80 00 00 00 00 
    603       285.300 DT     0217 Rx 8  00 00 00 00 00 00 00 00 
    604       285.542 DT     039B Rx 8  FE 00 2F FE FF E2 C4 00 
    605       285.785 DT     0415 Rx 8  00 00 E8 F2 08 00 08 00 
    606       286.037 DT     0041 Rx 8  00 00 00 00 00 00 00 00 
    607       286.289 DT     0042 Rx 8  00 00 00 00 00 00 00 00 
    608       286.533 DT     046F Rx 8  13 88 00 00 00 00 00 00 
    609       286.759 DT     0490 Rx 8  B7 8B 78 B7 8B 78 B7 90 
    610       286.984 DT     0491 Rx 8  B7 8B 78 B7 8B 79 B7 90 
    611       287.208 DT     0492 Rx 8  B7 AB 7A B7 8B 7A B7 90 
    612       287.430 DT     0493 Rx 8  B7 9B 79 B7 AB 7A B7 90 
    613       287.657 DT     0494 Rx 8  B7 9B 79 B7 AB 7A B7 90 
    614       287.883 DT     0495 Rx 8  B7 9B 7A B7 AB 79 B7 A0 
    615       288.129 DT     0204 Rx 8  C4 00 7D 00 00 FB 00 00 
    616       288.355 DT     0496 Rx 8  B7 9B 79 B7 9B 79 B7 90 
    617       288.598 DT     0167 Rx 8  02 80 00 11 FF E0 00 00 
    618       288.824 DT     0497 Rx 8  B7 9B 78 B7 8B 79 B7 80 
    619       289.076 DT     0205 Rx 8  00 04 00 00 00 00 00 00 
    620       289.303 DT     0498 Rx 8  B7 6B 77 B7 6B 77 B7 70 
    621       289.539 DT     03A8 Rx 8  00 10 27 10 07 25 FE 48 
    622       289.783 DT     02E7 Rx 8  FF FC FF 80 00 00 00 00 
    623       290.011 DT     0499 Rx 8  B7 7B 77 B7 7B 76 B7 60 
    624       290.253 DT     0082 Rx 8  80 08 14 00 97 80 20 FF 
    625       290.478 DT     049A Rx 8  B7 7B 77 B7 9B 78 B7 80 
    626       290.716 DT     0411 Rx 8  00 00 10 B1 AB AA 00 00 
    627       290.942 DT     049B Rx 8  B7 8B 77 B7 7B 78 B7 80 
    628       291.169 DT     049C Rx 8  B7 8B 79 B7 AB 79 B7 90 
    629       291.471 DT     049D Rx 8  B7 8B 79 B7 9B 79 B7 70 
    630       291.749 DT     049E Rx 8  B7 8B 79 B7 8B 78 B7 90 
    631       292.029 DT     049F Rx 8  B7 9B 79 B7 8B 78 B7 90 
    632       292.312 DT     04A0 Rx 8  B7 9B 78 B7 8B 78 B7 80 
    633       292.584 DT     04A1 Rx 8  B7 8B 78 B7 8B 77 B7 80 
    634       292.832 DT     0217 Rx 8  00 00 00 00 00 00 00 00 
    635       293.077 DT     007A Rx 8  00 00 02 C4 BC 70 00 00 
    636       293.323 DT     007B Rx 8  80 02 8B 10 00 00 00 00 
    637       293.571 DT     04A2 Rx 8  FF EF FE FF EF FE FF E0 
    638       293.842 DT     04A3 Rx 8  FF E0 4B 4B 4B 4B 4B 4B 
    639       294.116 DT     04A4 Rx 8  4B 4B 4B 4B FE FE FE 00 
    640       294.402 DT     04A7 Rx 8  FE FE FE FE FE FE 00 00 
    641       295.357 DT     007E Rx 8  00 00 44 B8 00 0C 00 00 
    642       295.821 DT     03A3 Rx 8  28 FA 41 F5 00 00 00 00 
    643       296.431 DT     005A Rx 8  00 00 00 0B F2 81 10 00 
    644       297.876 DT     0156 Rx 8  4B 00 00 00 01 00 00 00 
    645       298.138 DT     0047 Rx 8  20 00 00 00 00 00 00 00 
    646       298.418 DT     0167 Rx 8  02 80 00 11 FF E0 00 00 
    647       298.814 DT     0178 Rx 8  01 2C 02 00 4E 5F C2 5F 
    648       299.256 DT     0202 Rx 8  07 FA 10 00 60 00 00 00 
    649       299.510 DT     02EC Rx 8  00 00 00 00 01 61 00 00 
    650       299.759 DT     0204 Rx 8  C8 00 7D 00 00 FA 00 00 
    651       300.081 DT     0205 Rx 8  00 04 00 00 00 00 00 00 
    652       300.451 DT     0230 Rx 8  00 00 00 00 FE 00 00 03 
    653       300.731 DT     025B Rx 8  01 F4 09 F4 E0 00 80 00 
    654       300.985 DT     0048 Rx 8  20 00 00 00 00 00 00 00 
    655       301.234 DT     0421 Rx 8  00 00 10 00 00 00 38 00 
    656       301.510 DT     042D Rx 8  00 01 B8 28 37 00 00 00 
    657       301.786 DT     043E Rx 8  00 73 00 00 00 00 00 00 
    658       302.062 DT     0455 Rx 8  00 80 00 00 00 00 00 00 
    659       302.474 DT     007A Rx 8  00 00 02 C4 BC 70 00 00 
    660       302.719 DT     007B Rx 8  80 02 CB 10 00 00 00 00 
    661       302.965 DT     04B0 Rx 8  01 00 FF FE B0 00 00 F4 
    662       303.225 DT     007D Rx 8  00 00 F4 B0 00 1F E8 00 
    663       303.491 DT     007F Rx 8  00 00 FF F0 00 00 00 00 
    664       303.813 DT     0213 Rx 8  FF FF 00 0C 00 01 FF 40 
    665       304.069 DT     0216 Rx 8  BF 72 DF 9E AA 00 0E 32 
    666       304.381 DT     0217 Rx 8  00 00 00 00 00 00 00 00 
    667       304.648 DT     0415 Rx 8  00 00 EC F1 08 00 08 00 
    668       306.076 DT     0041 Rx 8  00 00 00 00 00 00 00 00 
    669       306.328 DT     0042 Rx 8  00 00 00 00 00 00 00 00 
    670       306.570 DT     042C Rx 8  84 02 00 00 1B 10 00 00 
    671       307.900 DT     0204 Rx 8  CC 00 7D 00 00 F9 00 00 
    672       308.134 DT     043D Rx 8  40 0A DC 0B 04 86 02 B1 
    673       308.376 DT     0167 Rx 8  02 80 00 11 FF E0 00 00 
    674       308.650 DT     0205 Rx 8  00 04 00 00 00 00 00 00 
    675       309.387 DT     03A8 Rx 8  00 10 27 10 07 25 FE 48 
    676       309.981 DT     0082 Rx 8  80 08 14 04 97 80 20 FF 
    677       312.115 DT     007A Rx 8  00 00 02 C4 BC 70 00 00 
    678       312.361 DT     007B Rx 8  80 02 8B 10 00 00 00 00 
    679       312.774 DT     0217 Rx 8  00 00 00 00 00 00 00 00 
    680       314.926 DT     007E Rx 8  00 00 44 B8 00 0C 00 00 
    681       315.792 DT     0242 Rx 8  FF FF 20 0C D7 00 03 01 
    682       316.024 DT     042E Rx 8  65 B0 80 32 C0 62 00 00 
    683       318.008 DT     0047 Rx 8  20 00 00 00 00 00 00 00 
    684       318.265 DT     0167 Rx 8  02 7F FF 11 FF E0 00 00 
    685       318.589 DT     0202 Rx 8  07 F8 20 00 60 00 00 00 
    686       318.859 DT     0204 Rx 8  D0 00 7D 00 00 F8 00 00 
    687       319.127 DT     0205 Rx 8  00 04 00 00 00 00 00 00 
    688       319.397 DT     0230 Rx 8  00 00 00 00 FE 00 00 03 
    689       319.657 DT     025B Rx 8  01 F4 09 F4 E0 00 80 00 
    690       322.109 DT     007A Rx 8  00 00 02 C4 BC 70 00 00 
    691       322.354 DT     007B Rx 8  80 02 CB 10 00 00 00 00 
    692       322.714 DT     0048 Rx 8  20 00 00 00 00 00 00 00 
    693       322.992 DT     007D Rx 8  00 00 F3 C0 00 1F D8 00 
    694       323.258 DT     007F Rx 8  00 00 FF F0 00 00 00 00 
    695       323.519 DT     0213 Rx 8  FF FF 00 0C 00 01 FF 40 
    696       323.821 DT     0216 Rx 8  BF 72 DF 9E AA 00 0F 2D 
    697       324.097 DT     0217 Rx 8  00 00 00 00 00 00 00 00 
    698       324.383 DT     0415 Rx 8  00 00 F0 F0 08 00 08 00 
    699       324.661 DT     04B0 Rx 8  01 00 FF FE C0 00 00 F3 
    700       326.161 DT     0041 Rx 8  00 00 00 00 00 00 00 00 
    701       326.413 DT     0042 Rx 8  00 00 00 00 00 00 00 00 
    702       327.847 DT     0204 Rx 8  D4 00 7D 00 00 F7 00 00 
    703       328.128 DT     0205 Rx 8  00 04 00 00 00 00 00 00 
    704       328.428 DT     0167 Rx 8  02 7F FF 11 FF E0 00 00 
    705       329.354 DT     03A8 Rx 8  00 10 27 10 07 25 FE 48 
    706       329.954 DT     036F Rx 8  00 00 00 00 00 00 00 00 
    707       330.197 DT     0082 Rx 8  80 08 14 00 97 80 20 FF 
    708       330.439 DT     04DF Rx 8  70 F1 00 00 00 00 00 00 
    709       330.677 DT     03D9 Rx 8  19 8C FE 00 40 18 00 FF 
    710       331.377 DT     03C5 Rx 8  00 00 20 21 90 00 00 00 
    711       332.020 DT     007A Rx 8  00 00 02 C3 BC 70 00 00 
    712       332.264 DT     007B Rx 8  80 02 CB 0C 00 00 00 00 
    713       332.714 DT     0217 Rx 8  00 00 00 00 00 00 00 00 
    714       334.940 DT     007E Rx 8  00 00 44 B8 00 0C 00 00 
    715       338.107 DT     0047 Rx 8  20 00 00 00 00 00 00 00 
    716       338.405 DT     0167 Rx 8  02 7F FF 11 FF E0 00 00 
    717       338.751 DT     0202 Rx 8  07 F6 30 00 60 00 00 00 
    718       339.041 DT     0204 Rx 8  D8 00 7D 00 00 F6 00 00 
    719       339.309 DT     0205 Rx 8  00 04 00 00 00 00 00 00 
    720       339.575 DT     0230 Rx 8  00 00 00 00 FE 00 00 03 
    721       339.838 DT     025B Rx 8  01 F4 09 F4 E0 00 80 00 
    722       342.432 DT     007A Rx 8  00 00 02 C4 BC 70 00 00 
    723       342.678 DT     007B Rx 8  80 02 8B 10 00 00 00 00 
    724       342.924 DT     04B0 Rx 8  01 00 FF FE D0 00 00 F2 
    725       343.181 DT     007D Rx 8  00 00 F2 D0 00 20 08 00 
    726       343.449 DT     007F Rx 8  00 00 FF F0 00 00 00 00 
    727       343.807 DT     0213 Rx 8  FF FF 00 0C 00 01 FF 40 
    728       344.065 DT     0216 Rx 8  BF 72 DF 9E AA 00 10 56 
    729       344.363 DT     0217 Rx 8  00 00 00 00 00 00 00 00 
    730       344.631 DT     0415 Rx 8  00 00 F4 EF 08 00 08 00 
    731       344.886 DT     0048 Rx 8  20 00 00 00 00 00 00 00 
    732       346.184 DT     0041 Rx 8  00 00 00 00 00 00 00 00 
    733       346.436 DT     0042 Rx 8  00 00 00 00 00 00 00 00 
    734       347.864 DT     0204 Rx 8  DC 00 7D 00 00 F5 00 00 
    735       348.142 DT     0205 Rx 8  00 04 00 00 00 00 00 00 
    736       348.400 DT     0167 Rx 8  02 7F FF 11 FF E0 00 00 
    737       350.005 DT     0082 Rx 8  80 08 14 00 97 80 20 FF 
    738       350.277 DT     0333 Rx 8  00 00 00 00 00 40 00 00 
    739       350.535 DT     03A8 Rx 8  00 10 27 10 07 25 FE 48 
    740       352.121 DT     007A Rx 8  00 00 02 C4 BC 70 00 00 
    741       352.365 DT     007B Rx 8  80 02 CB 10 00 00 00 00 
    742       352.798 DT     0217 Rx 8  00 00 00 00 00 00 00 00 
    743       354.128 DT     0326 Rx 8  01 98 02 6E 01 D0 00 C8 
    744       354.998 DT     0430 Rx 8  03 02 6B 32 80 41 32 90 
    745       355.288 DT     0434 Rx 8  20 00 14 00 04 F7 00 00 
    746       355.547 DT     007E Rx 8  00 00 44 B8 00 0C 00 00 
    747       355.825 DT     0435 Rx 8  00 00 00 00 00 20 00 00 
    748       356.067 DT     012F Rx 8  EC F5 3F FF FF FF FF FF 
    749       356.315 DT     0083 Rx 8  00 E0 80 00 02 08 00 00 
    750       356.565 DT     0210 Rx 8  FF FF FF FF 00 00 00 00 
    751       356.801 DT     0242 Rx 8  FF FF 20 0C D7 00 03 01 
    752       357.051 DT     026E Rx 8  00 00 00 00 00 00 00 00 
    753       357.297 DT     0332 Rx 8  00 02 00 00 00 00 10 00 
    754       357.548 DT     037E Rx 8  00 08 00 00 00 00 00 00 
    755       357.786 DT     03A3 Rx 8  58 F4 41 EF 00 00 00 00 
    756       358.032 DT     038D Rx 8  30 00 00 00 00 00 00 F0 
    757       358.282 DT     0047 Rx 8  20 00 00 00 00 00 00 00 
    758       358.532 DT     033D Rx 8  00 00 00 00 00 00 00 00 
    759       358.774 DT     0167 Rx 8  02 80 00 11 FF E0 00 00 
    760       359.014 DT     03A4 Rx 8  EA C4 43 FF FF FF FF FF 
    761       359.262 DT     0202 Rx 8  07 F4 40 00 60 00 00 00 
    762       359.506 DT     03B1 Rx 8  08 00 00 00 00 78 00 00 
    763       359.751 DT     0204 Rx 8  E0 00 7D 00 00 F4 00 00 
    764       359.999 DT     03B6 Rx 8  08 00 09 00 00 00 00 00 
    765       360.251 DT     0205 Rx 8  00 04 00 00 00 00 00 00 
    766       360.489 DT     03B7 Rx 8  00 00 03 00 60 44 A7 02 
    767       360.737 DT     0230 Rx 8  00 00 00 00 FE 00 00 03 
    768       360.985 DT     03B8 Rx 8  FF FF FF FF 00 00 00 00 
    769       361.227 DT     025B Rx 8  01 F4 09 F4 E0 00 80 00 
    770       361.469 DT     03B9 Rx 8  40 00 00 00 00 06 3C 00 
    771       361.700 DT     042B Rx 8  D7 C0 80 CA 56 3C E6 00 
    772       361.932 DT     03BA Rx 8  24 25 55 C4 20 00 05 10 
    773       362.176 DT     007A Rx 8  00 00 02 C4 BC 70 00 00 
    774       362.423 DT     007B Rx 8  80 02 8B 10 00 00 00 00 
    775       362.659 DT     03BB Rx 8  FF FF 56 55 55 59 00 00 
    776       362.901 DT     042C Rx 8  84 02 00 00 1B 10 00 00 
    777       363.149 DT     03BD Rx 8  00 00 00 00 00 00 00 00 
    778       363.385 DT     043D Rx 8  40 0A DC 0C 04 86 02 B1 
    779       363.635 DT     03C0 Rx 8  00 00 00 00 00 00 00 00 
    780       363.883 DT     045F Rx 8  03 FE 00 00 00 00 00 00 
    781       364.127 DT     03C6 Rx 8  00 00 A0 01 00 00 00 00 
    782       364.380 DT     0468 Rx 8  00 00 00 00 00 20 00 00 
    783       364.624 DT     03E3 Rx 8  00 00 04 23 80 00 00 00 
    784       364.872 DT     0469 Rx 8  00 00 00 00 00 00 00 00 
    785       365.110 DT     03EB Rx 8  00 14 24 00 04 2A 02 7C 
    786       365.342 DT     047E Rx 8  74 92 79 0E 60 00 53 E0 
    787       365.570 DT     040A Rx 8  C1 01 45 4C 33 4E 57 47 
    788       365.816 DT     007D Rx 8  00 00 F1 E0 00 1F F7 FF 
    789       366.068 DT     0041 Rx 8  00 00 00 00 00 00 00 00 
    790       366.320 DT     0042 Rx 8  00 00 00 00 00 00 00 00 
    791       366.573 DT     007F Rx 8  00 00 FF F0 00 00 00 00 
    792       366.819 DT     040D Rx 8  8A 00 00 00 00 00 00 00 
    793       367.073 DT     0048 Rx 8  20 00 00 00 00 00 00 00 
    794       367.315 DT     0213 Rx 8  FF FF 00 0C 00 01 FF 40 
    795       367.547 DT     042E Rx 8  65 B0 80 32 C0 62 00 00 
    796       367.779 DT     0216 Rx 8  BF 72 DF 9E AA 00 11 41 
    797       368.012 DT     043C Rx 8  32 D7 64 44 29 D9 88 14 
    798       368.258 DT     0204 Rx 8  E4 00 7D 00 00 F3 00 00 
    799       368.500 DT     0447 Rx 8  32 00 00 4B 04 20 00 00 
    800       368.742 DT     0167 Rx 8  02 7F FF 11 FF E0 00 00 
    801       368.988 DT     0456 Rx 8  80 00 00 00 00 00 00 00 
    802       369.240 DT     0205 Rx 8  00 04 00 00 00 00 00 00 
    803       369.566 DT     0217 Rx 8  00 00 00 00 00 00 00 00 
    804       369.826 DT     03A8 Rx 8  00 10 27 10 07 25 FE 48 
    805       370.108 DT     0082 Rx 8  80 08 14 00 97 80 20 FF 
    806       370.402 DT     0415 Rx 8  00 00 F8 EE 08 00 08 00 
    807       370.677 DT     04B0 Rx 8  01 00 FF FE E0 00 00 F1 
    808       371.381 DT     012E Rx 8  FD 1C E3 FF FF FF FF FF 
    809       372.405 DT     004C Rx 8  20 AA BF 1E C5 F3 00 00 
    810       372.653 DT     007A Rx 8  00 00 02 C3 BC 70 00 00 
    811       372.897 DT     007B Rx 8  80 02 CB 0C 00 00 00 00 
    812       373.146 DT     0217 Rx 8  00 00 00 00 00 00 00 00 
    813       374.956 DT     007E Rx 8  00 00 44 B8 00 0C 00 00 
    814       378.084 DT     0202 Rx 8  07 F2 50 00 60 00 00 00 
    815       378.382 DT     0047 Rx 8  20 00 00 00 00 00 00 00 
    816       378.642 DT     005C Rx 8  83 AC 00 EF 20 91 00 00 
    817       378.902 DT     0167 Rx 8  02 7F FF 11 FF E0 00 00 
    818       379.162 DT     0176 Rx 8  00 0A F4 10 00 00 00 00 
    819       379.450 DT     0185 Rx 8  05 A0 75 48 B1 40 00 00 
    820       379.732 DT     0203 Rx 8  40 00 00 00 00 00 00 00 
    821       380.005 DT     0204 Rx 8  E8 00 7D 00 00 F2 00 00 
    822       380.273 DT     0205 Rx 8  00 04 00 00 00 00 00 00 
    823       380.567 DT     0230 Rx 8  00 00 00 00 FE 00 00 03 
    824       380.837 DT     025A Rx 8  00 01 90 00 00 00 00 00 
    825       381.129 DT     025B Rx 8  01 F4 09 F4 E0 00 80 00 
    826       381.409 DT     0410 Rx 8  00 00 40 01 41 FF 83 40 
    827       382.559 DT     04B0 Rx 8  01 00 FF FE F0 00 00 F0 
    828       382.804 DT     007A Rx 8  00 00 02 C4 BC 70 00 00 
    829       383.050 DT     007B Rx 8  80 02 8B 10 00 00 00 00 
    830       383.294 DT     007D Rx 8  00 00 F0 F0 00 20 07 FE 
    831       383.524 DT     024B Rx 8  02 E4 06 41 4F 0E AC BE 
    832       383.777 DT     007F Rx 8  00 00 FF F0 00 00 00 00 
    833       384.009 DT     024C Rx 8  4B A0 97 1C A9 00 9C 00 
    834       384.251 DT     0213 Rx 8  FF FF 00 0C 00 01 FF 40 
    835       384.481 DT     0286 Rx 8  0C D0 1B A4 0C 2C 1B 5E 
    836       384.717 DT     0216 Rx 8  BF 72 DF 9E AA 00 12 43 
    837       384.966 DT     02E4 Rx 8  08 C0 FF 80 00 00 00 00 
    838       385.213 DT     0217 Rx 8  00 00 00 00 00 00 00 00 
    839       385.455 DT     039B Rx 8  FE 00 2F FE FF E2 C4 00 
    840       385.701 DT     0415 Rx 8  00 00 FC ED 08 00 08 00 
    841       385.946 DT     046F Rx 8  13 88 00 00 00 00 00 00 
    842       386.172 DT     0490 Rx 8  B7 8B 77 B7 9B 78 B7 90 
    843       386.424 DT     0041 Rx 8  00 00 00 00 00 00 00 00 
    844       386.676 DT     0042 Rx 8  00 00 00 00 00 00 00 00 
    845       386.901 DT     0491 Rx 8  B7 9B 79 B7 8B 79 B7 90 
    846       387.125 DT     0492 Rx 8  B7 9B 7A B7 9B 79 B7 A0 
    847       387.349 DT     0493 Rx 8  B7 9B 79 B7 9B 79 B7 80 
    848       387.580 DT     0494 Rx 8  B7 9B 79 B7 AB 79 B7 A0 
    849       387.804 DT     0495 Rx 8  B7 9B 7A B7 AB 7A B7 A0 
    850       388.050 DT     0204 Rx 8  EC 00 7D 00 00 F1 00 00 
    851       388.275 DT     0496 Rx 8  B7 9B 79 B7 AB 79 B7 90 
    852       388.517 DT     0167 Rx 8  02 7F FF 11 FF E0 00 00 
    853       388.745 DT     0497 Rx 8  B7 8B 79 B7 9B 79 B7 80 
    854       388.999 DT     0048 Rx 8  20 00 00 00 00 00 00 00 
    855       389.252 DT     0205 Rx 8  00 04 00 00 00 00 00 00 
    856       389.480 DT     0498 Rx 8  B7 6B 77 B7 7B 76 B7 60 
    857       389.716 DT     03A8 Rx 8  00 10 27 10 07 25 FE 48 
    858       389.958 DT     0449 Rx 8  FF FC FF FC FF EF FE 00 
    859       390.200 DT     0082 Rx 8  80 08 14 0C 97 80 20 FF 
    860       390.444 DT     025F Rx 8  80 06 FF FC 00 60 00 00 
    861       390.681 DT     03D9 Rx 8  19 8C FE 18 40 18 00 F9 
    862       390.925 DT     02E7 Rx 8  FF FC FF 80 00 00 00 00 
    863       391.163 DT     0411 Rx 8  00 00 10 B1 AB AA 00 00 
    864       391.387 DT     0499 Rx 8  B7 7B 77 B7 6B 76 B7 60 
    865       391.611 DT     049A Rx 8  B7 8B 78 B7 9B 78 B7 70 
    866       391.836 DT     049B Rx 8  B7 8B 78 B7 8B 79 B7 80 
    867       392.062 DT     049C Rx 8  B7 9B 79 B7 9B 79 B7 90 
    868       392.336 DT     049D Rx 8  B7 8B 7A B7 8B 79 B7 80 
    869       392.605 DT     049E Rx 8  B7 8B 79 B7 9B 78 B7 90 
    870       392.853 DT     0217 Rx 8  00 00 00 00 00 00 00 00 
    871       393.097 DT     007A Rx 8  00 00 02 C3 BC 70 00 00 
    872       393.344 DT     007B Rx 8  80 02 8B 0C 00 00 00 00 
    873       393.568 DT     049F Rx 8  B7 9B 79 B7 7B 78 B7 90 
    874       393.840 DT     04A0 Rx 8  B7 9B 78 B7 7B 78 B7 80 
    875       394.109 DT     04A1 Rx 8  B7 8B 78 B7 7B 77 B7 80 
    876       394.411 DT     04A2 Rx 8  FF EF FE FF EF FE FF E0 
    877       394.683 DT     04A3 Rx 8  FF E0 4B 4B 4B 4B 4B 4B 
    878       394.960 DT     04A4 Rx 8  4B 4B 4B 4B FE FE FE 00 
    879       395.236 DT     04A7 Rx 8  FE FE FE FE FE FE 00 00 
    880       395.576 DT     007E Rx 8  00 00 44 B8 00 0C 00 00 
    881       395.822 DT     0242 Rx 8  FF FF 20 0C D7 00 03 01 
    882       396.054 DT     042E Rx 8  65 B0 80 32 C0 62 00 00 
    883       396.441 DT     005A Rx 8  00 00 00 0B F8 21 10 00 
    884       397.861 DT     0156 Rx 8  4B 00 00 00 01 00 00 00 
    885       398.143 DT     0047 Rx 8  20 00 00 00 00 00 00 00 
    886       398.427 DT     0167 Rx 8  02 7F FF 11 FF E0 00 00 
    887       398.717 DT     0178 Rx 8  01 2C 02 00 4E 5F C2 5F 
    888       399.137 DT     0202 Rx 8  07 F0 60 00 60 00 00 00 
    889       399.410 DT     0204 Rx 8  F0 00 7D 00 00 F0 00 00 
    890       399.656 DT     02EC Rx 8  00 00 00 00 01 61 00 00 
    891       399.908 DT     0205 Rx 8  00 04 00 00 00 00 00 00 
    892       400.172 DT     0230 Rx 8  00 00 00 00 FE 00 00 03 
    893       400.484 DT     025B Rx 8  01 F4 09 F4 E0 00 80 00 
    894       400.768 DT     0421 Rx 8  00 00 10 00 00 00 38 00 
    895       401.043 DT     042D Rx 8  00 01 B8 27 37 00 00 00 
    896       401.337 DT     043E Rx 8  00 73 00 00 00 00 00 00 
    897       401.779 DT     03E0 Rx 8  08 0E 00 00 84 00 00 00 
    898       402.453 DT     007A Rx 8  00 00 02 C4 BC 70 00 00 
    899       402.697 DT     007B Rx 8  80 02 CB 10 00 00 00 00 
    900       402.946 DT     04B0 Rx 8  01 00 FF FE 00 00 00 FF 
    901       403.220 DT     007D Rx 8  00 00 FF 00 00 1F F8 00 
    902       403.498 DT     007F Rx 8  00 00 FF F0 00 00 00 00 
    903       403.836 DT     0213 Rx 8  FF FF 00 0C 00 01 FF 40 
    904       404.094 DT     0216 Rx 8  BF 72 DF 9E AA 00 13 00 
    905       404.370 DT     0217 Rx 8  00 00 00 00 00 00 00 00 
    906       404.665 DT     0415 Rx 8  00 00 C0 FC 08 00 08 00 
    907       404.999 DT     0455 Rx 8  00 80 00 00 00 00 00 00 
    908       405.853 DT     0041 Rx 8  00 00 00 00 00 00 00 00 
    909       406.105 DT     0042 Rx 8  00 00 00 00 00 00 00 00 
    910       406.339 DT     03B4 Rx 8  40 11 11 FF 24 24 1C 00 
    911       406.581 DT     042C Rx 8  84 02 00 00 1B 10 00 00 
    912       407.859 DT     0204 Rx 8  F4 00 7D 00 00 EF 00 00 
    913       408.095 DT     043D Rx 8  40 0B DC 0D 05 86 02 B1 
    914       408.347 DT     0205 Rx 8  00 04 00 00 00 00 00 00 
    915       408.606 DT     0167 Rx 8  02 7F FF 11 FF E0 00 00 
    916       409.402 DT     03A8 Rx 8  00 10 27 10 07 25 FE 48 
    917       410.074 DT     0082 Rx 8  80 08 14 00 97 80 20 FF 
    918       410.822 DT     0048 Rx 8  20 00 00 00 00 00 00 00 
    919       412.113 DT     007A Rx 8  00 00 02 C4 BC 70 00 00 
    920       412.357 DT     007B Rx 8  80 02 CB 10 00 00 00 00 
    921       412.759 DT     0217 Rx 8  00 00 00 00 00 00 00 00 
    922       414.947 DT     007E Rx 8  00 00 44 B8 00 0C 00 00 
    923       415.821 DT     03A3 Rx 8  08 FE 41 F9 00 00 00 00 
    924       416.056 DT     03B5 Rx 8  01 09 01 09 01 0A 00 FB 
    925       418.068 DT     0047 Rx 8  20 00 00 00 00 00 00 00 
    926       418.382 DT     0167 Rx 8  02 7F FF 11 FF E0 00 00 
    927       418.672 DT     0202 Rx 8  07 EE 70 00 60 00 00 00 
    928       418.948 DT     0204 Rx 8  F8 00 7D 00 00 EE 00 00 
    929       419.232 DT     0205 Rx 8  00 04 00 00 00 00 00 00 
    930       419.499 DT     0230 Rx 8  00 00 00 00 FE 00 00 03 
    931       419.761 DT     025B Rx 8  01 F4 09 F4 E0 00 80 00 
    932       422.185 DT     007A Rx 8  00 00 02 C3 BC 70 00 00 
    933       422.521 DT     04B0 Rx 8  01 00 FF FE 10 00 00 FE 
    934       422.765 DT     007B Rx 8  80 02 CB 0C 00 00 00 00 
    935       423.013 DT     007D Rx 8  00 00 FE 10 00 1F E8 00 
    936       423.286 DT     007F Rx 8  00 00 FF F0 00 00 00 00 
    937       423.566 DT     0213 Rx 8  FF FF 00 0C 00 01 FF 40 
    938       423.820 DT     0216 Rx 8  BF 72 DF 9E AA 00 14 10 
    939       424.086 DT     0217 Rx 8  00 00 00 00 00 00 00 00 
    940       424.390 DT     0415 Rx 8  00 00 C4 FB 08 00 08 00 
    941       426.466 DT     0041 Rx 8  00 00 00 00 00 00 00 00 
    942       426.719 DT     0042 Rx 8  00 00 00 00 00 00 00 00 
    943       427.817 DT     0204 Rx 8  FC 00 7D 00 00 ED 00 00 
    944       428.097 DT     0205 Rx 8  00 04 00 00 00 00 00 00 
    945       428.375 DT     0167 Rx 8  02 7F FF 11 FF E0 00 00 
    946       429.355 DT     03A8 Rx 8  00 10 27 10 07 25 FE 48 
    947       429.887 DT     04DF Rx 8  40 F7 00 00 00 00 00 00 
    948       430.128 DT     0082 Rx 8  80 08 14 04 97 80 20 FF 
    949       432.164 DT     007A Rx 8  00 00 02 C3 BC 70 00 00 
    950       432.496 DT     007B Rx 8  80 02 CB 0C 00 00 00 00 
    951       432.752 DT     0217 Rx 8  00 00 00 00 00 00 00 00 
    952       433.007 DT     0048 Rx 8  20 00 00 00 00 00 00 00 
    953       434.931 DT     007E Rx 8  00 00 44 B8 00 0C 00 00 
    954       435.791 DT     0242 Rx 8  FF FF 20 0B D7 00 03 01 
    955       436.029 DT     0331 Rx 8  C0 00 D0 D5 04 69 18 00 
    956       436.319 DT     03C7 Rx 8  00 00 40 00 00 00 00 00 
    957       436.564 DT     042E Rx 8  65 B0 80 2E C0 62 00 00 
    958       438.060 DT     0047 Rx 8  20 00 00 00 00 00 00 00 
    959       438.364 DT     0167 Rx 8  02 7F FF 11 FF E0 00 00 
    960       438.676 DT     0202 Rx 8  07 FC 00 00 60 00 00 00 
    961       438.938 DT     0204 Rx 8  C0 00 7D 00 00 FC 00 00 
    962       439.206 DT     0205 Rx 8  00 04 00 00 00 00 00 00 
    963       439.475 DT     0230 Rx 8  00 00 00 00 FE 00 00 03 
    964       439.737 DT     025B Rx 8  01 F4 09 F4 E0 00 80 00 
    965       442.511 DT     007A Rx 8  00 00 02 C3 BC 70 00 00 
    966       442.755 DT     007B Rx 8  80 02 CB 0C 00 00 00 00 
    967       443.002 DT     04B0 Rx 8  01 00 FF FE 20 00 00 FD 
    968       443.262 DT     0076 Rx 8  00 00 00 80 80 00 00 00 
    969       443.582 DT     007D Rx 8  00 00 FD 20 00 1F F8 00 
    970       443.922 DT     007F Rx 8  00 00 FF F0 00 00 00 00 
    971       444.182 DT     0213 Rx 8  FF FF 00 0C 00 01 FF 40 
    972       444.436 DT     0216 Rx 8  BF 72 DF 9E AA 00 15 01 
    973       444.702 DT     0217 Rx 8  00 00 00 00 00 00 00 00 
    974       444.973 DT     0415 Rx 8  00 00 C8 FA 08 00 08 00 
    975       445.855 DT     0041 Rx 8  00 00 00 00 00 00 00 00 
    976       446.107 DT     0042 Rx 8  00 00 00 00 00 00 00 00 
    977       447.811 DT     0204 Rx 8  C4 00 7D 00 00 FB 00 00 
    978       448.089 DT     0205 Rx 8  00 04 00 00 00 00 00 00 
    979       448.437 DT     0167 Rx 8  02 7F FF 11 FF E0 00 00 
    980       449.997 DT     0082 Rx 8  80 08 14 04 97 80 20 FF 
    981       450.290 DT     0333 Rx 8  00 00 00 00 00 40 00 00 
    982       450.664 DT     03A8 Rx 8  00 10 27 10 07 25 FE 48 
    983       451.346 DT     03AB Rx 8  02 FF 0F F0 40 00 00 FF 
    984       451.642 DT     03AE Rx 8  00 00 0A 00 00 18 00 00 
    985       451.966 DT     03D9 Rx 8  19 8C FE 30 40 18 00 F3 
    986       452.210 DT     007A Rx 8  00 00 02 C4 BC 70 00 00 
    987       452.455 DT     007B Rx 8  80 02 CB 10 00 00 00 00 
    988       452.805 DT     0217 Rx 8  00 00 00 00 00 00 00 00 
    989       453.769 DT     059E Rx 8  9E 00 FF FF 9E FF FF FF 
    990       454.241 DT     0326 Rx 8  01 98 02 6E 01 D0 00 C8 
    991       454.838 DT     0048 Rx 8  20 00 00 00 00 00 00 00 
    992       455.408 DT     0437 Rx 8  00 00 00 00 00 00 00 00 
    993       455.680 DT     0386 Rx 8  00 00 00 00 00 00 00 00 
    994       455.924 DT     012F Rx 8  0B F6 3F FF FF FF FF FF 
    995       456.172 DT     0083 Rx 8  00 E0 80 00 02 08 00 00 
    996       456.412 DT     03B3 Rx 8  44 88 C0 0C 10 00 00 02 
    997       456.654 DT     028F Rx 8  FF FD FF FB FF F7 FC 00 
    998       456.892 DT     03C3 Rx 8  5C CC 00 00 C8 00 00 00 
    999       457.138 DT     032A Rx 8  00 03 00 10 02 00 00 00 
   1000       457.371 DT     042B Rx 8  D7 C0 80 BA 56 3C E6 00 
   1001       457.617 DT     0332 Rx 8  00 02 00 00 00 00 10 00 
   1002       457.859 DT     042C Rx 8  84 02 00 00 1B 10 00 00 
   1003       458.101 DT     0375 Rx 8  B2 F0 00 00 00 00 7F FF 
   1004       458.351 DT     033D Rx 8  00 00 00 00 00 00 00 00 
   1005       458.601 DT     0047 Rx 8  20 00 00 00 00 00 00 00 
   1006       458.835 DT     043D Rx 8  40 0A DC 0B 04 86 02 B1 
   1007       459.077 DT     0167 Rx 8  02 7F FF 11 FF E0 00 00 
   1008       459.347 DT     0202 Rx 8  07 FA 10 00 60 00 00 00 
   1009       459.624 DT     0204 Rx 8  C8 00 7D 00 00 FA 00 00 
   1010       459.892 DT     0205 Rx 8  00 04 00 00 00 00 00 00 
   1011       460.162 DT     007E Rx 8  00 00 44 B8 00 0C 00 00 
   1012       460.472 DT     0230 Rx 8  00 00 00 00 FE 00 00 03 
   1013       460.736 DT     0233 Rx 8  00 00 FF F0 00 00 00 00 
   1014       460.996 DT     025B Rx 8  01 F4 09 F4 E0 00 80 00 
   1015       461.274 DT     028A Rx 8  0E D4 00 00 00 00 00 00 
   1016       461.540 DT     02F1 Rx 8  00 00 30 00 00 03 40 00 
   1017       461.820 DT     041A Rx 8  00 00 01 08 00 00 00 00 
   1018       462.117 DT     0430 Rx 8  03 02 6B 32 80 41 32 90 
   1019       462.361 DT     007A Rx 8  00 00 02 C4 BC 70 00 00 
   1020       462.605 DT     007B Rx 8  80 02 CB 10 00 00 00 00 
   1021       462.849 DT     0434 Rx 8  20 00 14 00 04 F7 00 00 
   1022       463.117 DT     007D Rx 8  00 00 FC 30 00 1F F7 FF 
   1023       463.384 DT     007F Rx 8  00 00 FF F0 00 00 00 00 
   1024       463.668 DT     0213 Rx 8  FF FF 00 0C 00 01 FF 40 
   1025       463.916 DT     0216 Rx 8  BF 72 DF 9E AA 00 16 14 
   1026       464.242 DT     0217 Rx 8  00 00 00 00 00 00 00 00 
   1027       464.510 DT     0415 Rx 8  00 00 CC F9 08 00 08 00 
   1028       464.786 DT     0435 Rx 8  00 00 00 00 00 20 00 00 
   1029       465.048 DT     0439 Rx 8  93 11 00 40 07 40 00 00 
   1030       465.318 DT     043A Rx 8  40 5C 00 00 80 00 60 40 
   1031       465.595 DT     0446 Rx 8  00 00 00 00 00 00 00 00 
   1032       465.859 DT     047E Rx 8  84 92 79 00 60 00 54 80 
   1033       466.135 DT     0487 Rx 8  00 00 00 00 00 10 FF FF 
   1034       466.387 DT     0041 Rx 8  00 00 00 00 00 00 00 00 
   1035       466.639 DT     0042 Rx 8  00 00 00 00 00 00 00 00 
   1036       466.889 DT     0488 Rx 8  00 00 00 00 00 00 00 00 
   1037       467.189 DT     04B0 Rx 8  01 00 FF FE 30 00 00 FC 
   1038       467.473 DT     04C0 Rx 8  00 00 00 00 60 00 00 00 
   1039       467.767 DT     04C1 Rx 8  00 00 00 00 00 00 00 00 
   1040       468.094 DT     0204 Rx 8  CC 00 7D 00 00 F9 00 00 
   1041       468.382 DT     0167 Rx 8  02 80 00 11 FF E0 00 00 
   1042       468.654 DT     0205 Rx 8  00 04 00 00 00 00 00 00 
   1043       469.430 DT     03A8 Rx 8  00 10 27 10 07 25 FE 48 
   1044       470.102 DT     0082 Rx 8  80 08 14 00 97 80 20 FF 
   1045       471.378 DT     012E Rx 8  A0 1D E3 FF FF FF FF FF 
   1046       472.412 DT     004C Rx 8  20 AA BF 1E CF E9 00 00 
   1047       472.657 DT     007A Rx 8  00 00 02 C3 BC 70 00 00 
   1048       472.900 DT     007B Rx 8  80 02 CB 0C 00 00 00 00 
   1049       473.148 DT     0217 Rx 8  00 00 00 00 00 00 00 00 
   1050       475.048 DT     007E Rx 8  00 00 44 B8 00 0C 00 00 
   1051       475.788 DT     0242 Rx 8  FF FF 20 0C D7 00 03 01 
   1052       476.032 DT     03A3 Rx 8  38 F8 41 F3 00 00 00 00 
   1053       476.265 DT     042E Rx 8  65 B0 80 32 C0 62 00 00 
   1054       476.839 DT     0048 Rx 8  20 00 00 00 00 00 00 00 
   1055       478.095 DT     0202 Rx 8  07 F8 20 00 60 00 00 00 
   1056       478.377 DT     0047 Rx 8  20 00 00 00 00 00 00 00 
   1057       478.642 DT     005C Rx 8  83 4C 00 F5 20 91 00 00 
   1058       478.900 DT     0167 Rx 8  02 7F FF 11 FF E0 00 00 
   1059       479.160 DT     0176 Rx 8  00 04 FA 10 00 00 00 00 
   1060       479.452 DT     0185 Rx 8  05 A0 75 48 B1 40 00 00 
   1061       479.718 DT     0203 Rx 8  40 00 00 00 00 00 00 00 
   1062       480.028 DT     0204 Rx 8  D0 00 7D 00 00 F8 00 00 
   1063       480.298 DT     0205 Rx 8  00 04 00 00 00 00 00 00 
   1064       480.581 DT     0230 Rx 8  00 00 00 00 FE 00 00 03 
   1065       480.845 DT     025A Rx 8  00 01 90 00 00 00 00 00 
   1066       481.153 DT     025B Rx 8  01 F4 09 F4 E0 00 80 00 
   1067       481.427 DT     0410 Rx 8  00 00 40 01 61 FF 83 40 
   1068       482.471 DT     04B0 Rx 8  01 00 FF FE 40 00 00 FB 
   1069       482.715 DT     007A Rx 8  00 00 02 C3 BC 70 00 00 
   1070       482.960 DT     007B Rx 8  80 02 CB 0C 00 00 00 00 
   1071       483.210 DT     007D Rx 8  00 00 FB 40 00 1F F8 00 
   1072       483.440 DT     024B Rx 8  02 E4 06 41 4F 0E AC BE 
   1073       483.693 DT     007F Rx 8  00 00 FF F0 00 00 00 00 
   1074       483.925 DT     024C Rx 8  4B A0 97 1C A9 00 9C 00 
   1075       484.167 DT     0213 Rx 8  FF FF 00 0C 00 01 FF 40 
   1076       484.397 DT     0286 Rx 8  0C D0 1B A4 0C 2C 1B 5E 
   1077       484.628 DT     0216 Rx 8  BF 72 DF 9E AA 00 17 11 
   1078       484.876 DT     02E4 Rx 8  08 C0 FF 80 00 00 00 00 
   1079       485.124 DT     0217 Rx 8  00 00 00 00 00 00 00 00 
   1080       485.366 DT     039B Rx 8  FE 00 2F FE FF E2 C4 00 
   1081       485.611 DT     0415 Rx 8  00 00 D0 F8 08 00 08 00 
   1082       485.855 DT     046F Rx 8  13 88 00 00 00 00 00 00 
   1083       486.107 DT     0041 Rx 8  00 00 00 00 00 00 00 00 
   1084       486.359 DT     0042 Rx 8  00 00 00 00 00 00 00 00 
   1085       486.583 DT     0490 Rx 8  B7 8B 78 B7 AB 78 B7 90 
   1086       486.808 DT     0491 Rx 8  B7 8B 78 B7 8B 79 B7 80 
   1087       487.032 DT     0492 Rx 8  B7 9B 7A B7 8B 79 B7 90 
   1088       487.256 DT     0493 Rx 8  B7 8B 7A B7 9B 79 B7 90 
   1089       487.481 DT     0494 Rx 8  B7 AB 7A B7 9B 79 B7 90 
   1090       487.707 DT     0495 Rx 8  B7 AB 79 B7 9B 79 B7 A0 
   1091       487.951 DT     0204 Rx 8  D4 00 7D 00 00 F7 00 00 
   1092       488.176 DT     0496 Rx 8  B7 9B 79 B7 9B 7A B7 90 
   1093       488.418 DT     0167 Rx 8  02 80 00 11 FF E0 00 00 
   1094       488.640 DT     0497 Rx 8  B7 9B 78 B7 9B 79 B7 90 
   1095       488.892 DT     0205 Rx 8  00 04 00 00 00 00 00 00 
   1096       489.117 DT     0498 Rx 8  B7 6B 76 B7 6B 76 B7 70 
   1097       489.339 DT     0499 Rx 8  B7 7B 76 B7 6B 76 B7 70 
   1098       489.583 DT     02E7 Rx 8  FF FC FF 80 00 00 00 00 
   1099       489.820 DT     03A8 Rx 8  00 10 27 10 07 25 FE 48 
   1100       490.044 DT     049A Rx 8  B7 8B 78 B7 9B 78 B7 70 
   1101       490.284 DT     0082 Rx 8  80 08 14 04 97 80 20 FF 
   1102       490.508 DT     049B Rx 8  B7 8B 77 B7 8B 79 B7 80 
   1103       490.747 DT     0411 Rx 8  00 00 10 B1 AB AA 00 00 
   1104       490.973 DT     049C Rx 8  B7 8B 79 B7 9B 79 B7 90 
   1105       491.249 DT     049D Rx 8  B7 9B 79 B7 9B 7A B7 80 
   1106       491.531 DT     049E Rx 8  B7 8B 78 B7 9B 78 B7 80 
   1107       491.808 DT     049F Rx 8  B7 9B 7A B7 8B 78 B7 90 
   1108       492.084 DT     04A0 Rx 8  B7 9B 78 B7 7B 77 B7 80 
   1109       492.364 DT     04A1 Rx 8  B7 8B 78 B7 8B 77 B7 80 
   1110       492.613 DT     0217 Rx 8  00 00 00 00 00 00 00 00 
   1111       492.861 DT     04A2 Rx 8  FF EF FE FF EF FE FF E0 
   1112       493.105 DT     007A Rx 8  00 00 02 C3 BC 70 00 00 
   1113       493.351 DT     007B Rx 8  80 02 8B 0C 00 00 00 00 
   1114       493.580 DT     04A3 Rx 8  FF E0 4B 4B 4B 4B 4B 4B 
   1115       493.854 DT     04A4 Rx 8  4B 4B 4B 4B FE FE FE 00 
   1116       494.140 DT     04A7 Rx 8  FE FE FE FE FE FE 00 00 
   1117       495.365 DT     007E Rx 8  00 00 44 B8 00 0C 00 00 
   1118       495.785 DT     0084 Rx 8  19 00 00 76 16 33 15 00 
   1119       496.417 DT     005A Rx 8  00 00 00 0B EE C1 10 00 
   1120       497.827 DT     0156 Rx 8  4B 00 00 00 01 00 00 00 
   1121       498.183 DT     0047 Rx 8  20 00 00 00 00 00 00 00 
   1122       498.453 DT     0167 Rx 8  02 7F FF 11 FF E0 00 00 
   1123       498.779 DT     0178 Rx 8  01 2C 02 00 4E 5F C2 5F 
   1124       499.034 DT     0048 Rx 8  20 00 00 00 00 00 00 00 
   1125       499.276 DT     0202 Rx 8  07 F6 30 00 60 00 00 00 
   1126       499.526 DT     02EC Rx 8  00 00 00 00 01 61 00 00 
   1127       499.770 DT     0204 Rx 8  D8 00 7D 00 00 F6 00 00 
   1128       500.040 DT     0205 Rx 8  00 04 00 00 00 00 00 00 
   1129       500.392 DT     0230 Rx 8  00 00 00 00 FE 00 00 03 
   1130       500.699 DT     025B Rx 8  01 F4 09 F4 E0 00 80 00 
   1131       500.971 DT     0421 Rx 8  00 00 10 00 00 00 38 00 
   1132       501.243 DT     042D Rx 8  00 01 B8 28 37 00 00 00 
   1133       501.519 DT     043E Rx 8  00 73 00 00 00 00 00 00 
   1134       501.797 DT     0455 Rx 8  00 80 00 00 00 00 00 00 
   1135       502.453 DT     04B0 Rx 8  01 00 FF FE 50 00 00 FA 
   1136       502.698 DT     007A Rx 8  00 00 02 C4 BC 70 00 00 
   1137       502.942 DT     007B Rx 8  80 02 CB 10 00 00 00 00 
   1138       503.188 DT     007D Rx 8  00 00 FA 50 00 1F E8 00 
   1139       503.452 DT     007F Rx 8  00 00 FF F0 00 00 00 00 
   1140       503.773 DT     0213 Rx 8  FF FF 00 0C 00 01 FF 40 
   1141       504.027 DT     0216 Rx 8  BF 72 DF 9E AA 00 18 00 
   1142       504.311 DT     0217 Rx 8  00 00 00 00 00 00 00 00 
   1143       504.575 DT     0415 Rx 8  00 00 D4 F7 08 00 08 00 
   1144       506.171 DT     0041 Rx 8  00 00 00 00 00 00 00 00 
   1145       506.423 DT     0042 Rx 8  00 00 00 00 00 00 00 00 
   1146       506.665 DT     042C Rx 8  84 02 00 00 1B 10 00 00 
   1147       507.857 DT     0204 Rx 8  DC 00 7D 00 00 F5 00 00 
   1148       508.138 DT     0205 Rx 8  00 04 00 00 00 00 00 00 
   1149       508.370 DT     043D Rx 8  40 0B DC 0C 05 86 02 B1 
   1150       508.612 DT     0167 Rx 8  02 7F FF 11 FF E0 00 00 
   1151       509.394 DT     03A8 Rx 8  00 10 27 10 07 25 FE 48 
   1152       510.084 DT     0082 Rx 8  80 08 14 00 97 80 20 FF 
   1153       510.402 DT     03D9 Rx 8  19 8C FE 08 40 18 00 FD 
   1154       512.110 DT     007A Rx 8  00 00 02 C4 BC 70 00 00 
   1155       512.355 DT     007B Rx 8  80 02 CB 10 00 00 00 00 
   1156       512.789 DT     0217 Rx 8  00 00 00 00 00 00 00 00 
   1157       514.971 DT     007E Rx 8  00 00 44 B8 00 0C 00 00 
   1158       515.789 DT     0242 Rx 8  FF FF 20 0C D7 00 03 01 
   1159       516.021 DT     042E Rx 8  65 B0 80 32 C0 62 00 00 
   1160       518.083 DT     0047 Rx 8  20 00 00 00 00 00 00 00 
   1161       518.381 DT     0167 Rx 8  02 80 00 11 FF E0 00 00 
   1162       518.724 DT     0202 Rx 8  07 F4 40 00 60 00 00 00 
   1163       519.018 DT     0204 Rx 8  E0 00 7D 00 00 F4 00 00 
   1164       519.288 DT     0205 Rx 8  00 04 00 00 00 00 00 00 
   1165       519.554 DT     0230 Rx 8  00 00 00 00 FE 00 00 03 
   1166       519.818 DT     025B Rx 8  01 F4 09 F4 E0 00 80 00 
   1167       520.837 DT     0048 Rx 8  20 00 00 00 00 00 00 00 
   1168       522.179 DT     007A Rx 8  00 00 02 C4 BC 70 00 00 
   1169       522.437 DT     04B0 Rx 8  01 00 FF FE 60 00 00 F9 
   1170       522.683 DT     007B Rx 8  80 02 8B 10 00 00 00 00 
   1171       522.929 DT     007D Rx 8  00 00 F9 60 00 1F E8 00 
   1172       523.195 DT     007F Rx 8  00 00 FF F0 00 00 00 00 
   1173       523.482 DT     0213 Rx 8  FF FF 00 0C 00 01 FF 40 
   1174       523.750 DT     0216 Rx 8  BF 72 DF 9E AA 00 19 45 
   1175       524.022 DT     0217 Rx 8  00 00 00 00 00 00 00 00 
   1176       524.302 DT     0415 Rx 8  00 00 D8 F6 08 00 08 00 
   1177       526.136 DT     0041 Rx 8  00 00 00 00 00 00 00 00 
   1178       526.388 DT     0042 Rx 8  00 00 00 00 00 00 00 00 
   1179       527.809 DT     0204 Rx 8  E4 00 7D 00 00 F3 00 00 
   1180       528.089 DT     0205 Rx 8  00 04 00 00 00 00 00 00 
   1181       528.375 DT     0167 Rx 8  02 7F FF 11 FF E0 00 00 
   1182       529.433 DT     03A8 Rx 8  00 10 27 10 07 25 FE 48 
   1183       529.897 DT     0390 Rx 8  02 00 14 00 00 00 00 00 
   1184       530.140 DT     0082 Rx 8  80 08 14 00 97 80 20 FF 
   1185       530.418 DT     036A Rx 8  A8 00 08 00 00 00 00 00 
   1186       530.714 DT     036F Rx 8  00 00 00 00 00 00 00 00 
   1187       531.013 DT     04DF Rx 8  10 FD 00 00 00 00 00 00 
   1188       532.109 DT     007A Rx 8  00 00 02 C3 BC 70 00 00 
   1189       532.353 DT     007B Rx 8  80 02 CB 0C 00 00 00 00 
   1190       532.601 DT     0217 Rx 8  00 00 00 00 00 00 00 00 
   1191       534.955 DT     007E Rx 8  00 00 44 B8 00 0C 00 00 
   1192       535.812 DT     03A3 Rx 8  68 F2 41 ED 00 00 00 00 
   1193       538.078 DT     0202 Rx 8  07 F2 50 00 60 00 00 00 
   1194       538.374 DT     0047 Rx 8  20 00 00 00 00 00 00 00 
   1195       538.650 DT     0167 Rx 8  02 7F FF 11 FF E0 00 00 
   1196       538.910 DT     0204 Rx 8  E8 00 7D 00 00 F2 00 00 
   1197       539.216 DT     0205 Rx 8  00 04 00 00 00 00 00 00 
   1198       539.484 DT     0230 Rx 8  00 00 00 00 FE 00 00 03 
   1199       539.745 DT     025B Rx 8  01 F4 09 F4 E0 00 80 00 
   1200       542.091 DT     007A Rx 8  00 00 02 C4 BC 70 00 00 
   1201       542.335 DT     007B Rx 8  80 02 CB 10 00 00 00 00 
   1202       542.581 DT     04B0 Rx 8  01 00 FF FE 70 00 00 F8 
   1203       542.836 DT     0048 Rx 8  20 00 00 00 00 00 00 00 
   1204       543.082 DT     007D Rx 8  00 00 F8 70 00 1F D7 FD 
   1205       543.386 DT     007F Rx 8  00 00 FF F0 00 00 00 00 
   1206       543.744 DT     0213 Rx 8  FF FF 00 0C 00 01 FF 40 
   1207       543.996 DT     0216 Rx 8  BF 72 DF 9E AA 00 1A 41 
   1208       544.262 DT     0217 Rx 8  00 00 00 00 00 00 00 00 
   1209       544.529 DT     0415 Rx 8  00 00 DC F5 08 00 08 00 
   1210       546.049 DT     0041 Rx 8  00 00 00 00 00 00 00 00 
   1211       546.301 DT     0042 Rx 8  00 00 00 00 00 00 00 00 
   1212       547.833 DT     0204 Rx 8  EC 00 7D 00 00 F1 00 00 
   1213       548.101 DT     0205 Rx 8  00 04 00 00 00 00 00 00 
   1214       548.375 DT     0167 Rx 8  02 7F FF 11 FF E0 00 00 
   1215       550.047 DT     0082 Rx 8  80 08 14 00 97 80 20 FF 
   1216       550.317 DT     0333 Rx 8  00 00 00 00 00 40 00 00 
   1217       550.575 DT     03A8 Rx 8  00 10 27 10 07 25 FE 48 
   1218       551.950 DT     007A Rx 8  00 00 02 C4 BC 70 00 00 
   1219       552.194 DT     007B Rx 8  80 02 CB 10 00 00 00 00 
   1220       552.612 DT     0217 Rx 8  00 00 00 00 00 00 00 00 
   1221       554.127 DT     0326 Rx 8  01 98 02 6E 01 D0 00 C8 
   1222       554.991 DT     0430 Rx 8  03 02 6B 32 80 41 32 90 
   1223       555.283 DT     0434 Rx 8  20 00 14 00 04 F7 00 00 
   1224       555.541 DT     007E Rx 8  00 00 44 B8 00 0C 00 00 
   1225       555.787 DT     0242 Rx 8  FF FF 20 0C D7 00 03 01 
   1226       556.027 DT     012F Rx 8  56 F7 3F FF FF FF FF FF 
   1227       556.257 DT     042B Rx 8  D7 C0 80 CA 56 3C E6 00 
   1228       556.507 DT     026E Rx 8  00 00 00 00 00 00 00 00 
   1229       556.749 DT     042C Rx 8  84 02 00 00 1B 10 00 00 
   1230       557.000 DT     037E Rx 8  00 08 00 00 00 00 00 00 
   1231       557.248 DT     0435 Rx 8  00 00 00 00 00 20 00 00 
   1232       557.492 DT     03A4 Rx 8  B7 C5 43 FF FF FF FF FF 
   1233       557.740 DT     0083 Rx 8  00 E0 80 00 02 08 00 00 
   1234       557.976 DT     040A Rx 8  C1 02 30 36 36 37 30 00 
   1235       558.222 DT     0332 Rx 8  00 02 00 00 00 00 10 00 
   1236       558.472 DT     033D Rx 8  00 00 00 00 00 00 00 00 
   1237       558.722 DT     0047 Rx 8  20 00 00 00 00 00 00 00 
   1238       558.955 DT     042E Rx 8  65 B0 80 32 C0 62 00 00 
   1239       559.197 DT     0167 Rx 8  02 7F FF 11 FF E0 00 00 
   1240       559.433 DT     043D Rx 8  40 0A DC 0C 04 86 02 B1 
   1241       559.677 DT     0202 Rx 8  07 F0 60 00 60 00 00 00 
   1242       559.929 DT     0468 Rx 8  00 00 00 00 00 20 00 00 
   1243       560.175 DT     0204 Rx 8  F0 00 7D 00 00 F0 00 00 
   1244       560.423 DT     0469 Rx 8  00 00 00 00 00 00 00 00 
   1245       560.674 DT     0205 Rx 8  00 04 00 00 00 00 00 00 
   1246       560.938 DT     0230 Rx 8  00 00 00 00 FE 00 00 03 
   1247       561.199 DT     025B Rx 8  01 F4 09 F4 E0 00 80 00 
   1248       561.459 DT     047E Rx 8  64 92 79 01 60 00 54 B0 
   1249       562.407 DT     04B0 Rx 8  01 00 FF FE 80 00 00 F7 
   1250       562.651 DT     007A Rx 8  00 00 02 C4 BC 70 00 00 
   1251       562.895 DT     007B Rx 8  80 02 CB 10 00 00 00 00 
   1252       563.140 DT     007D Rx 8  00 00 F7 80 00 20 08 00 
   1253       563.422 DT     007F Rx 8  00 00 FF F0 00 00 00 00 
   1254       563.788 DT     0213 Rx 8  FF FF 00 0C 00 01 FF 40 
   1255       564.038 DT     0216 Rx 8  BF 72 DF 9E AA 00 1B 44 
   1256       564.302 DT     0217 Rx 8  00 00 00 00 00 00 00 00 
   1257       564.576 DT     0415 Rx 8  00 00 E0 F4 08 00 08 00 
   1258       564.865 DT     0048 Rx 8  20 00 00 00 00 00 00 00 
   1259       565.925 DT     0041 Rx 8  00 00 00 00 00 00 00 00 
   1260       566.177 DT     0042 Rx 8  00 00 00 00 00 00 00 00 
   1261       567.849 DT     0204 Rx 8  F4 00 7D 00 00 EF 00 00 
   1262       568.129 DT     0205 Rx 8  00 04 00 00 00 00 00 00 
   1263       568.425 DT     0167 Rx 8  02 7F FF 11 FF E0 00 00 
   1264       569.389 DT     03A8 Rx 8  00 10 27 10 07 25 FE 48 
   1265       569.954 DT     0082 Rx 8  80 08 14 04 97 80 20 FF 
   1266       570.300 DT     03D9 Rx 8  19 8C FE 20 40 18 00 F7 
   1267       571.384 DT     012E Rx 8  47 1E E3 FF FF FF FF FF 
   1268       572.368 DT     004C Rx 8  20 AA BF 1E C9 EF 00 00 
   1269       572.612 DT     007A Rx 8  00 00 02 C3 BC 70 00 00 
   1270       572.856 DT     007B Rx 8  80 02 CB 0C 00 00 00 00 
   1271       573.104 DT     0217 Rx 8  00 00 00 00 00 00 00 00 
   1272       575.037 DT     007E Rx 8  00 00 44 B8 00 0C 00 00 
   1273       578.123 DT     0202 Rx 8  07 EE 70 00 60 00 00 00 
   1274       578.399 DT     0047 Rx 8  20 00 00 00 00 00 00 00 
   1275       578.691 DT     005C Rx 8  83 EC 00 EB 20 91 00 00 
   1276       578.949 DT     0167 Rx 8  02 7F FF 11 FF E0 00 00 
   1277       579.210 DT     0176 Rx 8  00 0E F0 10 00 00 00 00 
   1278       579.478 DT     0185 Rx 8  05 A0 75 48 B1 40 00 00 
   1279       579.746 DT     0203 Rx 8  40 00 00 00 00 00 00 00 
   1280       580.064 DT     0204 Rx 8  F8 00 7D 00 00 EE 00 00 
   1281       580.404 DT     0205 Rx 8  00 04 00 00 00 00 00 00 
   1282       580.678 DT     0230 Rx 8  00 00 00 00 FE 00 00 03 
   1283       580.957 DT     025A Rx 8  00 01 90 00 00 00 00 00 
   1284       581.225 DT     025B Rx 8  01 F4 09 F4 E0 00 80 00 
   1285       581.499 DT     0410 Rx 8  00 00 40 01 61 FF 83 40 
   1286       582.395 DT     04B0 Rx 8  01 00 FF FE 90 00 00 F6 
   1287       582.639 DT     007A Rx 8  00 00 02 C4 BC 70 00 00 
   1288       582.884 DT     007B Rx 8  80 02 CB 10 00 00 00 00 
   1289       583.128 DT     007D Rx 8  00 00 F6 90 00 1F F8 03 
   1290       583.358 DT     024B Rx 8  02 E4 06 41 4F 0E AC BE 
   1291       583.610 DT     007F Rx 8  00 00 FF F0 00 00 00 00 
   1292       583.843 DT     024C Rx 8  4B A0 97 1C A9 00 9C 00 
   1293       584.085 DT     0213 Rx 8  FF FF 00 0C 00 01 FF 40 
   1294       584.315 DT     0286 Rx 8  0C D0 1B A4 0C 2C 1B 5E 
   1295       584.545 DT     0216 Rx 8  BF 72 DF 9E AA 00 1C 54 
   1296       584.794 DT     02E4 Rx 8  08 C0 FF 80 00 00 00 00 
   1297       585.042 DT     0217 Rx 8  00 00 00 00 00 00 00 00 
   1298       585.284 DT     039B Rx 8  FE 00 2F FE FF E2 C4 00 
   1299       585.526 DT     0415 Rx 8  00 00 E4 F3 08 00 08 00 
   1300       585.770 DT     046F Rx 8  13 88 00 00 00 00 00 00 
   1301       585.997 DT     0490 Rx 8  B7 9B 78 B7 8B 77 B7 90 
   1302       586.249 DT     0041 Rx 8  00 00 00 00 00 00 00 00 
   1303       586.501 DT     0042 Rx 8  00 00 00 00 00 00 00 00 
   1304       586.725 DT     0491 Rx 8  B7 9B 79 B7 8B 79 B7 90 
   1305       586.980 DT     0048 Rx 8  20 00 00 00 00 00 00 00 
   1306       587.204 DT     0492 Rx 8  B7 9B 7A B7 8B 79 B7 A0 
   1307       587.428 DT     0493 Rx 8  B7 9B 79 B7 9B 7A B7 90 
   1308       587.655 DT     0494 Rx 8  B7 AB 79 B7 9B 79 B7 90 
   1309       587.879 DT     0495 Rx 8  B7 9B 79 B7 AB 79 B7 90 
   1310       588.127 DT     0204 Rx 8  FC 00 7D 00 00 ED 00 00 
   1311       588.354 DT     0496 Rx 8  B7 9B 7A B7 AB 79 B7 A0 
   1312       588.596 DT     0167 Rx 8  02 7F FF 11 FF E0 00 00 
   1313       588.822 DT     0497 Rx 8  B7 9B 78 B7 8B 79 B7 80 
   1314       589.074 DT     0205 Rx 8  00 04 00 00 00 00 00 00 
   1315       589.301 DT     0498 Rx 8  B7 7B 77 B7 6B 76 B7 60 
   1316       589.537 DT     03A8 Rx 8  00 10 27 10 07 25 FE 48 
   1317       589.781 DT     02E7 Rx 8  FF FC FF 80 00 00 00 00 
   1318       590.023 DT     0082 Rx 8  80 08 14 00 97 80 20 FF 
   1319       590.249 DT     0499 Rx 8  B7 7B 78 B7 7B 77 B7 70 
   1320       590.476 DT     049A Rx 8  B7 7B 77 B7 9B 78 B7 70 
   1321       590.714 DT     0411 Rx 8  00 00 10 B1 AB AA 00 00 
   1322       590.940 DT     049B Rx 8  B7 8B 77 B7 8B 78 B7 80 
   1323       591.167 DT     049C Rx 8  B7 8B 79 B7 9B 79 B7 80 
   1324       591.467 DT     049D Rx 8  B7 8B 79 B7 AB 79 B7 80 
   1325       591.743 DT     049E Rx 8  B7 9B 79 B7 9B 79 B7 80 
   1326       592.024 DT     049F Rx 8  B7 8B 79 B7 8B 78 B7 90 
   1327       592.304 DT     04A0 Rx 8  B7 8B 78 B7 8B 78 B7 80 
   1328       592.552 DT     0217 Rx 8  00 00 00 00 00 00 00 00 
   1329       592.776 DT     04A1 Rx 8  B7 7B 78 B7 8B 77 B7 80 
   1330       593.021 DT     007A Rx 8  00 00 02 C4 BC 70 00 00 
   1331       593.265 DT     007B Rx 8  80 02 CB 10 00 00 00 00 
   1332       593.513 DT     04A2 Rx 8  FF EF FE FF EF FE FF E0 
   1333       593.782 DT     04A3 Rx 8  FF E0 4B 4B 4B 4B 4B 4B 
   1334       594.060 DT     04A4 Rx 8  4B 4B 4B 4B FE FE FE 00 
   1335       594.346 DT     04A7 Rx 8  FE FE FE FE FE FE 00 00 
   1336       595.489 DT     007E Rx 8  00 00 44 B8 00 0C 00 00 
   1337       595.787 DT     0242 Rx 8  FF FF 20 0C D7 00 03 01 
   1338       596.029 DT     03A3 Rx 8  18 FC 41 F7 00 00 00 00 
   1339       596.261 DT     042E Rx 8  65 B0 80 32 C0 62 00 00 
   1340       596.503 DT     005A Rx 8  00 00 00 0B F4 61 10 00 
   1341       597.897 DT     0156 Rx 8  4B 00 00 00 01 00 00 00 
   1342       598.160 DT     0047 Rx 8  20 00 00 00 00 00 00 00 
   1343       598.466 DT     0167 Rx 8  02 7F FF 11 FF E0 00 00 
   1344       598.934 DT     0178 Rx 8  01 2C 02 00 4E 5F C2 5F 
   1345       599.390 DT     0202 Rx 8  07 FC 00 00 60 00 00 00 
   1346       599.636 DT     02EC Rx 8  00 00 00 00 01 61 00 00 
   1347       599.884 DT     0204 Rx 8  C0 00 7D 00 00 FC 00 00 
   1348       600.208 DT     0205 Rx 8  00 04 00 00 00 00 00 00 
   1349       600.527 DT     0230 Rx 8  00 00 00 00 FE 00 00 03 
   1350       600.795 DT     025B Rx 8  01 F4 09 F4 E0 00 80 00 
   1351       601.113 DT     0421 Rx 8  00 00 10 00 00 00 38 00 
   1352       601.383 DT     042D Rx 8  00 01 B8 28 37 00 00 00 
   1353       601.661 DT     043E Rx 8  00 73 00 00 00 00 00 00 
   1354       601.941 DT     0455 Rx 8  00 80 00 00 00 00 00 00 
   1355       602.378 DT     04B0 Rx 8  01 00 FF FE A0 00 00 F5 
   1356       602.622 DT     007A Rx 8  00 00 02 C4 BC 70 00 00 
   1357       602.866 DT     007B Rx 8  80 02 CB 10 00 00 00 00 
   1358       603.112 DT     007D Rx 8  00 00 F5 A0 00 20 07 FE 
   1359       603.415 DT     007F Rx 8  00 00 FF F0 00 00 00 00 
   1360       603.673 DT     0213 Rx 8  FF FF 00 0C 00 01 FF 40 
   1361       603.919 DT     0216 Rx 8  BF 72 DF 9E AA 00 1D 45 
   1362       604.183 DT     0217 Rx 8  00 00 00 00 00 00 00 00 
   1363       604.451 DT     0415 Rx 8  00 00 E8 F2 08 00 08 00 
   1364       605.841 DT     0041 Rx 8  00 00 00 00 00 00 00 00 
   1365       606.094 DT     0042 Rx 8  00 00 00 00 00 00 00 00 
   1366       606.332 DT     0331 Rx 8  C0 00 D0 D5 04 69 18 00 
   1367       606.570 DT     03B6 Rx 8  08 00 00 00 24 77 7C A6 
   1368       606.808 DT     03B7 Rx 8  00 00 00 00 60 44 A3 C3 
   1369       607.050 DT     042C Rx 8  84 02 00 00 1B 10 00 00 
   1370       607.892 DT     0204 Rx 8  C4 00 7D 00 00 FB 00 00 
   1371       608.144 DT     043D Rx 8  40 0A DC 0C 04 86 02 B1 
   1372       608.396 DT     0205 Rx 8  00 04 00 00 00 00 00 00 
   1373       608.653 DT     0167 Rx 8  02 7F FF 11 FF E0 00 00 
   1374       608.907 DT     0048 Rx 8  20 00 00 00 00 00 00 00 
   1375       609.405 DT     03A8 Rx 8  00 10 27 10 07 25 FE 48 
   1376       610.087 DT     0082 Rx 8  80 08 14 00 97 80 20 FF 
   1377       612.108 DT     007A Rx 8  00 00 02 C4 BC 70 00 00 
   1378       612.352 DT     007B Rx 8  80 02 CB 10 00 00 00 00 
   1379       612.602 DT     0217 Rx 8  00 00 00 00 00 00 00 00 
   1380       614.898 DT     007E Rx 8  00 00 44 B8 00 0C 00 00 
   1381       618.112 DT     0047 Rx 8  20 00 00 00 00 00 00 00 
   1382       618.409 DT     0167 Rx 8  02 7F FF 11 FF E0 00 00 
   1383       618.755 DT     0202 Rx 8  07 FA 10 00 60 00 00 00 
   1384       619.051 DT     0204 Rx 8  C8 00 7D 00 00 FA 00 00 
   1385       619.319 DT     0205 Rx 8  00 04 00 00 00 00 00 00 
   1386       619.585 DT     0230 Rx 8  00 00 00 00 FE 00 00 03 
   1387       619.845 DT     025B Rx 8  01 F4 09 F4 E0 00 80 00 
   1388       622.180 DT     007A Rx 8  00 00 02 C4 BC 70 00 00 
   1389       622.426 DT     04B0 Rx 8  01 00 FF FE B0 00 00 F4 
   1390       622.670 DT     007B Rx 8  80 02 CB 10 00 00 00 00 
   1391       622.910 DT     007D Rx 8  00 00 F4 B0 00 20 08 02 
   1392       623.176 DT     007F Rx 8  00 00 FF F0 00 00 00 00 
   1393       623.435 DT     0213 Rx 8  FF FF 00 0C 00 01 FF 40 
   1394       623.783 DT     0216 Rx 8  BF 72 DF 9E AA 00 1E 44 
   1395       624.049 DT     0217 Rx 8  00 00 00 00 00 00 00 00 
   1396       624.317 DT     0415 Rx 8  00 00 EC F1 08 00 08 00 
   1397       626.385 DT     0041 Rx 8  00 00 00 00 00 00 00 00 
   1398       626.637 DT     0042 Rx 8  00 00 00 00 00 00 00 00 
   1399       627.861 DT     0204 Rx 8  CC 00 7D 00 00 F9 00 00 
   1400       628.140 DT     0205 Rx 8  00 04 00 00 00 00 00 00 
   1401       628.442 DT     0167 Rx 8  02 7F FF 11 FF E0 00 00 
   1402       629.434 DT     03A8 Rx 8  00 10 27 10 07 25 FE 48 
   1403       629.974 DT     04DF Rx 8  60 F3 00 00 00 00 00 00 
   1404       630.214 DT     0082 Rx 8  80 08 14 04 97 80 20 FF 
   1405       630.471 DT     03D9 Rx 8  19 8C FE 38 40 18 00 F1 
   1406       630.831 DT     0048 Rx 8  20 00 00 00 00 00 00 00 
   1407       632.107 DT     007A Rx 8  00 00 02 C3 BC 70 00 00 
   1408       632.351 DT     007B Rx 8  80 02 CB 0C 00 00 00 00 
   1409       632.600 DT     0217 Rx 8  00 00 00 00 00 00 00 00 
   1410       635.016 DT     007E Rx 8  00 00 44 B8 00 0C 00 00 
   1411       635.788 DT     0242 Rx 8  FF FF 20 0B D7 00 03 01 
   1412       636.020 DT     042E Rx 8  65 B0 80 2E C0 62 00 00 
   1413       638.110 DT     0047 Rx 8  20 00 00 00 00 00 00 00 
   1414       638.392 DT     0167 Rx 8  02 7F FF 11 FF E0 00 00 
   1415       638.742 DT     0202 Rx 8  07 F8 20 00 60 00 00 00 
   1416       639.050 DT     0204 Rx 8  D0 00 7D 00 00 F8 00 00 
   1417       639.321 DT     0205 Rx 8  00 04 00 00 00 00 00 00 
   1418       639.587 DT     0230 Rx 8  00 00 00 00 FE 00 00 03 
   1419       639.873 DT     025B Rx 8  01 F4 09 F4 E0 00 80 00 
   1420       642.089 DT     007A Rx 8  00 00 02 C4 BC 70 00 00 
   1421       642.333 DT     007B Rx 8  80 02 CB 10 00 00 00 00 
   1422       642.580 DT     04B0 Rx 8  01 00 FF FE C0 00 00 F3 
   1423       642.838 DT     007D Rx 8  00 00 F3 C0 00 1F E8 00 
   1424       643.106 DT     007F Rx 8  00 00 FF F0 00 00 00 00 
   1425       643.376 DT     0213 Rx 8  FF FF 00 0C 00 01 FF 40 
   1426       643.628 DT     0216 Rx 8  BF 72 DF 9E AA 00 1F 54 
   1427       643.900 DT     0217 Rx 8  00 00 00 00 00 00 00 00 
   1428       644.168 DT     0415 Rx 8  00 00 F0 F0 08 00 08 00 
   1429       645.852 DT     0041 Rx 8  00 00 00 00 00 00 00 00 
   1430       646.104 DT     0042 Rx 8  00 00 00 00 00 00 00 00 
   1431       646.837 DT     02F5 Rx 8  41 0D A5 00 00 00 00 00 
   1432       647.851 DT     0204 Rx 8  D4 00 7D 00 00 F7 00 00 
   1433       648.121 DT     0205 Rx 8  00 04 00 00 00 00 00 00 
   1434       648.382 DT     0167 Rx 8  02 7F FF 11 FF E0 00 00 
   1435       650.016 DT     0082 Rx 8  80 08 14 0C 97 80 20 FF 
   1436       650.286 DT     0333 Rx 8  00 00 00 00 00 40 00 00 
   1437       650.674 DT     03A8 Rx 8  00 10 27 10 07 25 FE 48 
   1438       651.355 DT     03AB Rx 8  02 FF 0F F0 40 00 00 FF 
   1439       651.627 DT     03AE Rx 8  00 00 0A 00 00 18 00 00 
   1440       651.947 DT     007A Rx 8  00 00 02 C3 BC 70 00 00 
   1441       652.191 DT     007B Rx 8  80 02 CB 0C 00 00 00 00 
   1442       652.596 DT     0217 Rx 8  00 00 00 00 00 00 00 00 
   1443       652.850 DT     0048 Rx 8  20 00 00 00 00 00 00 00 
   1444       654.262 DT     0326 Rx 8  01 98 02 6E 01 D0 00 C8 
   1445       655.172 DT     0430 Rx 8  03 02 6B 32 80 41 32 90 
   1446       655.440 DT     0375 Rx 8  EF F1 00 00 00 00 7F FF 
   1447       655.711 DT     0434 Rx 8  20 00 14 00 04 F7 00 00 
   1448       655.959 DT     012F Rx 8  0A F8 3F FF FF FF FF FF 
   1449       656.205 DT     007E Rx 8  00 00 44 B8 00 0C 00 00 
   1450       656.447 DT     03A3 Rx 8  48 F6 41 F1 00 00 00 00 
   1451       656.695 DT     0083 Rx 8  00 E0 80 00 02 08 00 00 
   1452       656.927 DT     042B Rx 8  D7 C0 80 BA 56 3C E6 00 
   1453       657.169 DT     042C Rx 8  84 02 00 00 1B 10 00 00 
   1454       657.417 DT     0435 Rx 8  00 00 00 00 00 20 00 00 
   1455       657.686 DT     0332 Rx 8  00 02 00 00 00 00 10 00 
   1456       658.120 DT     0047 Rx 8  20 00 00 00 00 00 00 00 
   1457       658.370 DT     033D Rx 8  00 00 00 00 00 00 00 00 
   1458       658.612 DT     0167 Rx 8  02 7F FF 11 FF E0 00 00 
   1459       658.846 DT     043D Rx 8  40 0C DC 0D 05 86 02 B1 
   1460       659.088 DT     0202 Rx 8  07 F6 30 00 60 00 00 00 
   1461       659.388 DT     0204 Rx 8  D8 00 7D 00 00 F6 00 00 
   1462       659.656 DT     0205 Rx 8  00 04 00 00 00 00 00 00 
   1463       659.925 DT     0230 Rx 8  00 00 00 00 FE 00 00 03 
   1464       660.187 DT     025B Rx 8  01 F4 09 F4 E0 00 80 00 
   1465       662.089 DT     007A Rx 8  00 00 02 C3 BC 70 00 00 
   1466       662.335 DT     007B Rx 8  80 02 8B 0C 00 00 00 00 
   1467       662.582 DT     04B0 Rx 8  01 00 FF FE D0 00 00 F2 
   1468       662.844 DT     007D Rx 8  00 00 F2 D0 00 1F E8 00 
   1469       663.138 DT     007F Rx 8  00 00 FF F0 00 00 00 00 
   1470       663.398 DT     0213 Rx 8  FF FF 00 0C 00 01 FF 40 
   1471       663.674 DT     0216 Rx 8  BF 72 DF 9E AA 00 20 44 
   1472       663.950 DT     0217 Rx 8  00 00 00 00 00 00 00 00 
   1473       664.218 DT     0415 Rx 8  00 00 F4 EF 08 00 08 00 
   1474       666.061 DT     0041 Rx 8  00 00 00 00 00 00 00 00 
   1475       666.313 DT     0042 Rx 8  00 00 00 00 00 00 00 00 
   1476       667.865 DT     0204 Rx 8  DC 00 7D 00 00 F5 00 00 
   1477       668.145 DT     0205 Rx 8  00 04 00 00 00 00 00 00 
   1478       668.403 DT     0167 Rx 8  02 7F FF 11 FF E0 00 00 
   1479       669.389 DT     03A8 Rx 8  00 10 27 10 07 25 FE 48 
   1480       670.063 DT     0082 Rx 8  80 08 14 04 97 80 20 FF 
   1481       671.384 DT     012E Rx 8  46 10 E3 FF FF FF FF FF 
   1482       671.628 DT     03C5 Rx 8  00 00 20 21 90 00 00 00 
   1483       672.098 DT     007A Rx 8  00 00 02 C4 BC 70 00 00 
   1484       672.338 DT     004C Rx 8  20 AA BF 1E C3 F5 00 00 
   1485       672.583 DT     007B Rx 8  80 02 CB 10 00 00 00 00 
   1486       672.831 DT     0217 Rx 8  00 00 00 00 00 00 00 00 
   1487       674.835 DT     0048 Rx 8  20 00 00 00 00 00 00 00 
   1488       675.082 DT     007E Rx 8  00 00 44 B8 00 0C 00 00 
   1489       675.788 DT     0242 Rx 8  FF FF 20 0B D7 00 03 01 
   1490       676.020 DT     042E Rx 8  65 B0 80 2E C0 62 00 00 
   1491       678.090 DT     0202 Rx 8  07 F4 40 00 60 00 00 00 
   1492       678.428 DT     0047 Rx 8  20 00 00 00 00 00 00 00 
   1493       678.684 DT     005C Rx 8  83 8C 00 F1 20 91 00 00 
   1494       678.940 DT     0167 Rx 8  02 7F FF 11 FF E0 00 00 
   1495       679.232 DT     0176 Rx 8  00 08 F6 10 00 00 00 00 
   1496       679.483 DT     0185 Rx 8  05 A0 75 4A B1 40 00 00 
   1497       679.813 DT     0203 Rx 8  40 00 00 00 00 00 00 00 
   1498       680.117 DT     0204 Rx 8  E0 00 7D 00 00 F4 00 00 
   1499       680.411 DT     0205 Rx 8  00 04 00 00 00 00 00 00 
   1500       680.677 DT     0230 Rx 8  00 00 00 00 FE 00 00 03 
   1501       680.939 DT     025A Rx 8  00 01 90 00 00 00 00 00 
   1502       681.274 DT     025B Rx 8  01 F4 09 F4 E0 00 80 00 
   1503       681.548 DT     0410 Rx 8  00 00 40 01 81 FF 83 40 
   1504       682.316 DT     04B0 Rx 8  01 00 FF FE E0 00 00 F1 
   1505       682.584 DT     007A Rx 8  00 00 02 C4 BC 70 00 00 
   1506       682.829 DT     007B Rx 8  80 02 CB 10 00 00 00 00 
   1507       683.075 DT     007D Rx 8  00 00 F1 E0 00 1F F8 00 
   1508       683.305 DT     024B Rx 8  02 E4 06 41 4F 0E AC BE 
   1509       683.557 DT     007F Rx 8  00 00 FF F0 00 00 00 00 
   1510       683.790 DT     024C Rx 8  4B A0 97 1C A9 00 9C 00 
   1511       684.032 DT     0213 Rx 8  FF FF 00 0C 00 01 FF 40 
   1512       684.262 DT     0286 Rx 8  0C D0 1B A4 0C 2C 1B 5E 
   1513       684.494 DT     0216 Rx 8  BF 72 DF 9E AA 00 21 40 
   1514       684.743 DT     02E4 Rx 8  08 C0 FF 80 00 00 00 00 
   1515       684.991 DT     0217 Rx 8  00 00 00 00 00 00 00 00 
   1516       685.233 DT     039B Rx 8  FE 00 2F FE FF E2 C4 00 
   1517       685.478 DT     0415 Rx 8  00 00 F8 EE 08 00 08 00 
   1518       685.722 DT     046F Rx 8  13 88 00 00 00 00 00 00 
   1519       685.974 DT     0041 Rx 8  00 00 00 00 00 00 00 00 
   1520       686.226 DT     0042 Rx 8  00 00 00 00 00 00 00 00 
   1521       686.453 DT     0490 Rx 8  B7 8B 78 B7 9B 78 B7 90 
   1522       686.677 DT     0491 Rx 8  B7 9B 78 B7 9B 78 B7 80 
   1523       686.901 DT     0492 Rx 8  B7 8B 7A B7 8B 79 B7 90 
   1524       687.130 DT     0493 Rx 8  B7 9B 79 B7 9B 7A B7 80 
   1525       687.356 DT     0494 Rx 8  B7 9B 7A B7 9B 79 B7 90 
   1526       687.580 DT     0495 Rx 8  B7 9B 7A B7 9B 79 B7 A0 
   1527       687.805 DT     0496 Rx 8  B7 9B 7A B7 AB 7A B7 90 
   1528       688.051 DT     0204 Rx 8  E4 00 7D 00 00 F3 00 00 
   1529       688.273 DT     0497 Rx 8  B7 9B 78 B7 9B 79 B7 90 
   1530       688.516 DT     0167 Rx 8  02 7F FF 11 FF E0 00 00 
   1531       688.742 DT     0498 Rx 8  B7 6B 76 B7 7B 77 B7 60 
   1532       688.994 DT     0205 Rx 8  00 04 00 00 00 00 00 00 
