;$FILEVERSION=2.0
;$STARTTIME=45720.0006167014
;$COLUMNS=N,O,T,I,d,l,D
;
;   Start time: 3/4/2025 00:00:53.283.0
;   Generated by PCAN-View v5.2.0.926
;   Message   Time    Type ID     Rx/Tx
;   Number    Offset  |    [hex]  |  Data Length
;   |         [ms]    |    |      |  |  Data [hex] ...
;   |         |       |    |      |  |  |
;---+-- ------+------ +- --+----- +- +- +- +- -- -- -- -- -- -- --
      1         1.954 DT     04B0 Rx 8  01 00 FF FE 00 00 00 FF 
      2         2.292 DT     007D Rx 8  00 00 FF 00 00 3F EF FE 
      3         2.559 DT     007F Rx 8  00 00 FF F0 00 00 00 00 
      4         2.815 DT     0213 Rx 8  FF FF 00 14 00 11 FF 41 
      5         3.101 DT     0216 Rx 8  77 E9 4B 6C AA 00 03 77 
      6         3.367 DT     0217 Rx 8  00 00 00 00 00 00 00 00 
      7         3.637 DT     0415 Rx 8  00 00 C0 FC 0F FE EF FE 
      8         4.495 DT     007A Rx 8  00 00 02 88 BC 70 00 00 
      9         4.738 DT     007B Rx 8  7F 96 CA 20 00 00 00 00 
     10         5.142 DT     0047 Rx 8  04 B2 E1 11 B5 CC 00 00 
     11         5.398 DT     005C Rx 8  87 0C 00 00 A0 11 00 00 
     12         5.720 DT     0167 Rx 8  03 80 00 11 FF E0 00 00 
     13         6.060 DT     0176 Rx 8  00 00 00 10 00 00 00 00 
     14         6.324 DT     0181 Rx 8  00 00 00 00 FF F8 00 00 
     15         6.579 DT     0185 Rx 8  01 E0 75 54 A2 40 00 00 
     16         6.883 DT     0201 Rx 8  64 64 00 38 04 00 00 00 
     17         7.157 DT     0202 Rx 8  07 00 00 00 20 00 00 00 
     18         7.493 DT     0203 Rx 8  00 00 00 00 00 00 00 00 
     19         7.803 DT     0204 Rx 8  C0 00 7D 00 00 00 00 00 
     20         8.069 DT     0205 Rx 8  00 00 00 00 00 00 00 00 
     21         8.331 DT     0041 Rx 8  00 00 00 00 00 00 00 00 
     22         8.584 DT     0042 Rx 8  00 00 00 00 00 00 00 00 
     23         8.832 DT     0230 Rx 8  00 00 00 00 FE 00 00 03 
     24         9.106 DT     025A Rx 8  00 01 90 00 00 00 00 00 
     25         9.374 DT     025B Rx 8  01 F4 09 F4 E0 00 80 00 
     26         9.632 DT     0302 Rx 8  C8 B4 B4 0F 00 00 00 00 
     27         9.986 DT     03F4 Rx 8  27 8E 11 49 60 00 57 B2 
     28        10.264 DT     03F5 Rx 8  00 00 00 00 00 00 11 48 
     29        10.542 DT     0410 Rx 8  00 00 40 02 01 FF 83 00 
     30        10.811 DT     0440 Rx 8  76 4E 20 3D 90 00 8A A2 
     31        11.537 DT     0048 Rx 8  04 04 F1 79 DB B1 00 00 
     32        11.781 DT     0478 Rx 8  FF FE 29 00 04 00 91 04 
     33        12.099 DT     0217 Rx 8  00 00 00 00 00 00 00 00 
     34        13.073 DT     033D Rx 8  00 00 00 00 00 00 00 00 
     35        13.469 DT     043D Rx 8  40 08 DC 09 03 86 02 76 
     36        14.450 DT     007A Rx 8  00 00 02 88 BC 70 00 00 
     37        14.692 DT     007B Rx 8  7F 96 CA 20 00 00 00 00 
     38        15.120 DT     0167 Rx 8  03 80 00 11 FF E0 00 00 
     39        15.386 DT     0204 Rx 8  C0 00 7D 00 00 00 00 00 
     40        15.654 DT     0205 Rx 8  00 00 00 00 00 00 00 00 
     41        16.871 DT     0333 Rx 8  00 00 00 00 00 40 00 00 
     42        17.523 DT     0083 Rx 8  00 E0 80 00 00 92 F0 00 
     43        18.215 DT     0242 Rx 8  FF FF 20 27 D7 00 03 00 
     44        18.461 DT     039A Rx 8  00 00 10 00 00 00 00 00 
     45        18.701 DT     039B Rx 8  FE 00 2F FE FF E2 88 00 
     46        18.940 DT     03A3 Rx 8  58 F4 20 F2 00 00 00 00 
     47        19.186 DT     039C Rx 8  42 A0 00 00 01 E0 00 00 
     48        19.420 DT     042E Rx 8  66 A0 80 9E 82 66 00 00 
     49        19.654 DT     047E Rx 8  74 92 5B AD 60 00 0E 60 
     50        19.900 DT     04C6 Rx 8  FF FF FF FF FF FF FF FF 
     51        20.143 DT     0375 Rx 8  B3 FE 00 00 00 00 7F FF 
     52        20.399 DT     007E Rx 8  00 00 39 7B 00 0C 00 00 
     53        20.659 DT     0430 Rx 8  02 02 48 74 FE 41 32 90 
     54        20.931 DT     0434 Rx 8  20 00 14 00 04 F7 00 00 
     55        21.209 DT     0435 Rx 8  00 00 00 00 00 20 00 00 
     56        21.617 DT     0332 Rx 8  00 00 00 00 00 00 10 00 
     57        21.933 DT     04B0 Rx 8  01 00 FF FE 10 00 00 FE 
     58        22.274 DT     007D Rx 8  00 00 FE 10 00 3F EF FE 
     59        22.540 DT     007F Rx 8  00 00 FF F0 00 00 00 00 
     60        22.784 DT     03C5 Rx 8  00 00 20 3D D5 00 00 00 
     61        23.024 DT     0213 Rx 8  FF FF 00 14 00 11 FF 41 
     62        23.304 DT     0216 Rx 8  77 E9 4B 6C AA 00 04 52 
     63        23.572 DT     0217 Rx 8  00 00 00 00 00 00 00 00 
     64        23.838 DT     0415 Rx 8  00 00 C4 FB 0F FE EF FE 
     65        24.351 DT     007A Rx 8  00 00 02 88 BC 70 00 00 
     66        24.593 DT     007B Rx 8  7F 96 CA 20 00 00 00 00 
     67        25.055 DT     0047 Rx 8  04 B2 E1 11 B5 CC 00 00 
     68        25.525 DT     0167 Rx 8  03 80 00 11 FF E0 00 00 
     69        26.001 DT     0202 Rx 8  07 00 00 00 20 00 00 00 
     70        26.273 DT     0204 Rx 8  C0 00 7D 00 00 00 00 00 
     71        26.541 DT     0205 Rx 8  00 00 00 00 00 00 00 00 
     72        26.805 DT     0230 Rx 8  00 00 00 00 FE 00 00 03 
     73        27.070 DT     025B Rx 8  01 F4 09 F4 E0 00 80 00 
     74        28.483 DT     0041 Rx 8  00 00 00 00 00 00 00 00 
     75        28.735 DT     0042 Rx 8  00 00 00 00 00 00 00 00 
     76        32.047 DT     0217 Rx 8  00 00 00 00 00 00 00 00 
     77        33.535 DT     0048 Rx 8  04 04 F1 79 DB B1 00 00 
     78        34.493 DT     007A Rx 8  00 00 02 88 BC 70 00 00 
     79        34.736 DT     007B Rx 8  7F 97 0A 20 00 00 00 00 
     80        35.148 DT     0167 Rx 8  03 80 00 11 FF E0 00 00 
     81        35.424 DT     0204 Rx 8  C0 00 7D 00 00 00 00 00 
     82        35.690 DT     0205 Rx 8  00 00 00 00 00 00 00 00 
     83        38.214 DT     042B Rx 8  D7 82 82 7A 50 38 EA 00 
     84        38.454 DT     012F Rx 8  62 F2 3F FF FF FF FF FF 
     85        38.690 DT     0326 Rx 8  01 90 02 4C 01 90 00 C8 
     86        38.935 DT     042C Rx 8  84 00 00 00 17 B0 00 00 
     87        39.179 DT     007E Rx 8  00 00 39 7B 00 0C 00 00 
     88        41.915 DT     04B0 Rx 8  01 00 FF FE 20 00 00 FD 
     89        42.257 DT     007D Rx 8  00 00 FD 20 00 3F EF FE 
     90        42.523 DT     007F Rx 8  00 00 FF F0 00 00 00 00 
     91        42.781 DT     0213 Rx 8  FF FF 00 14 00 11 FF 41 
     92        43.065 DT     0216 Rx 8  77 E9 4B 6C AA 00 05 4C 
     93        43.330 DT     0217 Rx 8  00 00 00 00 00 00 00 00 
     94        43.596 DT     0415 Rx 8  00 00 C8 FA 0F FE EF FE 
     95        44.340 DT     007A Rx 8  00 00 02 88 BC 70 00 00 
     96        44.582 DT     007B Rx 8  7F 97 0A 20 00 00 00 00 
     97        44.817 DT     024B Rx 8  02 DE 07 81 9F 0A 74 BE 
     98        45.051 DT     0047 Rx 8  04 B2 E1 11 B5 CC 00 00 
     99        45.287 DT     024C Rx 8  4B A0 89 0C BE 00 40 03 
    100        45.529 DT     0167 Rx 8  03 80 00 11 FF E0 00 00 
    101        45.761 DT     0286 Rx 8  0B F1 17 E2 0B 5A 17 A5 
    102        46.008 DT     0202 Rx 8  07 00 00 00 20 00 00 00 
    103        46.252 DT     02E4 Rx 8  0A 00 00 00 01 75 00 00 
    104        46.502 DT     0204 Rx 8  C0 00 7D 00 00 00 00 00 
    105        46.742 DT     046F Rx 8  09 EE 00 D8 00 00 00 00 
    106        46.993 DT     0205 Rx 8  00 00 00 00 00 00 00 00 
    107        47.219 DT     0490 Rx 8  A2 BA 2A A2 CA 2A A2 A0 
    108        47.467 DT     0230 Rx 8  00 00 00 00 FE 00 00 03 
    109        47.693 DT     0491 Rx 8  A2 AA 2A A2 AA 2B A2 A0 
    110        47.935 DT     025B Rx 8  01 F4 09 F4 E0 00 80 00 
    111        48.160 DT     0492 Rx 8  A2 AA 2A A2 AA 29 A2 A0 
    112        48.412 DT     0041 Rx 8  00 00 00 00 00 00 00 00 
    113        48.664 DT     0042 Rx 8  00 00 00 00 00 00 00 00 
    114        48.890 DT     0493 Rx 8  A2 9A 29 A2 9A 27 A2 C0 
    115        49.115 DT     0494 Rx 8  A2 5A 2B A2 9A 29 A2 B0 
    116        49.341 DT     0495 Rx 8  A2 AA 2B A2 AA 2B A2 B0 
    117        49.567 DT     0496 Rx 8  A2 9A 2A A2 AA 2A A2 A0 
    118        49.794 DT     0497 Rx 8  A2 AA 28 A2 DA 27 A2 E0 
    119        50.022 DT     0498 Rx 8  A2 EA 34 A2 EA 37 A3 00 
    120        50.248 DT     0499 Rx 8  A3 3A 33 A3 8A 35 A3 A0 
    121        50.470 DT     049A Rx 8  A2 9A 2A A2 BA 2A A2 B0 
    122        50.695 DT     049B Rx 8  A2 BA 2B A2 BA 2C A2 B0 
    123        50.921 DT     049C Rx 8  A2 7A 29 A2 7A 29 A2 90 
    124        51.169 DT     04DF Rx 8  00 FF 00 00 00 00 00 00 
    125        51.395 DT     049D Rx 8  A2 7A 2A A2 7A 2A A2 90 
    126        51.670 DT     049E Rx 8  A2 8A 29 A2 AA 2A A2 A0 
    127        51.944 DT     049F Rx 8  A2 AA 28 A2 AA 29 A2 A0 
    128        52.192 DT     0217 Rx 8  00 00 00 00 00 00 00 00 
    129        52.419 DT     04A0 Rx 8  A2 7A 27 A2 8A 29 A2 B0 
    130        52.701 DT     04A1 Rx 8  A2 AA 2C A2 BA 2C A2 B0 
    131        52.995 DT     04A2 Rx 8  FF EF FE FF EF FE FF E0 
    132        53.274 DT     04A3 Rx 8  FF E0 44 44 44 45 45 45 
    133        53.568 DT     04A4 Rx 8  44 45 44 44 FE FE FE 00 
    134        53.860 DT     04A7 Rx 8  FE FE FE FE FE FE 00 00 
    135        55.046 DT     0167 Rx 8  03 80 00 11 FF E0 00 00 
    136        55.293 DT     007A Rx 8  00 00 02 88 BC 70 00 00 
    137        55.529 DT     0048 Rx 8  04 04 F1 79 DB B1 00 00 
    138        55.771 DT     007B Rx 8  7F 96 CA 20 00 00 00 00 
    139        56.021 DT     0204 Rx 8  C0 00 7D 00 00 00 00 00 
    140        56.290 DT     0205 Rx 8  00 00 00 00 00 00 00 00 
    141        58.214 DT     0242 Rx 8  FF FF 20 27 D7 00 03 00 
    142        58.448 DT     042E Rx 8  66 A0 80 9E 82 66 00 00 
    143        58.696 DT     0455 Rx 8  00 80 00 00 00 00 00 00 
    144        58.998 DT     007E Rx 8  00 00 39 7B 00 0C 00 00 
    145        61.902 DT     04B0 Rx 8  01 00 FF FE 30 00 00 FC 
    146        62.234 DT     007D Rx 8  00 00 FC 30 00 3F EF FE 
    147        62.506 DT     007F Rx 8  00 00 FF F0 00 00 00 00 
    148        62.764 DT     0213 Rx 8  FF FF 00 14 00 11 FF 41 
    149        63.022 DT     043D Rx 8  40 08 DC 09 04 86 02 76 
    150        63.253 DT     0216 Rx 8  77 E9 4B 6C AA 00 06 33 
    151        63.517 DT     0217 Rx 8  00 00 00 00 00 00 00 00 
    152        63.783 DT     0415 Rx 8  00 00 CC F9 0F FE EF FE 
    153        64.377 DT     007A Rx 8  00 00 02 88 BC 70 00 00 
    154        64.619 DT     007B Rx 8  7F 96 CA 20 00 00 00 00 
    155        64.982 DT     0047 Rx 8  04 B2 E1 11 B5 CC 00 00 
    156        65.296 DT     0156 Rx 8  4B 00 00 00 01 00 00 00 
    157        65.594 DT     0167 Rx 8  03 80 00 11 FF E0 00 00 
    158        65.958 DT     0178 Rx 8  01 1C 02 00 4E 3F BE 3E 
    159        66.414 DT     0202 Rx 8  07 00 00 00 20 00 00 00 
    160        66.682 DT     0204 Rx 8  C0 00 7D 00 00 00 00 00 
    161        67.062 DT     0205 Rx 8  00 00 00 00 00 00 00 00 
    162        67.337 DT     0230 Rx 8  00 00 00 00 FE 00 00 03 
    163        67.597 DT     025B Rx 8  01 F4 09 F4 E0 00 80 00 
    164        67.871 DT     0421 Rx 8  00 00 10 00 00 00 2D 00 
    165        68.133 DT     042D Rx 8  00 11 B8 27 37 00 00 00 
    166        68.409 DT     043E Rx 8  00 73 00 00 00 00 00 00 
    167        68.867 DT     0041 Rx 8  00 00 00 00 00 00 00 00 
    168        69.119 DT     0042 Rx 8  00 00 00 00 00 00 00 00 
    169        72.127 DT     0217 Rx 8  00 00 00 00 00 00 00 00 
    170        74.372 DT     007A Rx 8  00 00 02 88 BC 70 00 00 
    171        74.614 DT     007B Rx 8  7F 96 CA 20 00 00 00 00 
    172        75.026 DT     0167 Rx 8  03 80 00 11 FF E0 00 00 
    173        75.308 DT     0204 Rx 8  C0 00 7D 00 00 00 00 00 
    174        75.575 DT     0205 Rx 8  00 00 00 00 00 00 00 00 
    175        76.593 DT     02EC Rx 8  00 00 10 8D 01 45 60 D8 
    176        77.437 DT     0048 Rx 8  04 04 F1 79 DB B1 00 00 
    177        78.309 DT     03A3 Rx 8  08 FE 20 FC 00 00 00 00 
    178        78.797 DT     007E Rx 8  00 00 39 7B 00 0C 00 00 
    179        80.597 DT     0411 Rx 8  00 00 10 A2 AB AA 00 00 
    180        81.889 DT     04B0 Rx 8  01 00 FF FE 40 00 00 FB 
    181        82.219 DT     007D Rx 8  00 00 FB 40 00 3F EF FE 
    182        82.506 DT     007F Rx 8  00 00 FF F0 00 00 00 00 
    183        82.746 DT     012E Rx 8  FD 1C E3 FF FF FF FF FF 
    184        82.986 DT     0213 Rx 8  FF FF 00 14 00 11 FF 41 
    185        83.232 DT     0216 Rx 8  77 E9 4B 6C AA 00 07 38 
    186        83.512 DT     0217 Rx 8  00 00 00 00 00 00 00 00 
    187        83.778 DT     0415 Rx 8  00 00 D0 F8 0F FE EF FE 
    188        84.368 DT     007A Rx 8  00 00 02 88 BC 70 00 00 
    189        84.611 DT     007B Rx 8  7F 97 4A 20 00 00 00 00 
    190        84.925 DT     0047 Rx 8  04 B2 E1 11 B5 CC 00 00 
    191        85.357 DT     0167 Rx 8  03 80 00 11 FF E0 00 00 
    192        85.947 DT     0202 Rx 8  07 00 00 00 20 00 00 00 
    193        86.228 DT     0204 Rx 8  C0 00 7D 00 00 00 00 00 
    194        86.492 DT     0205 Rx 8  00 00 00 00 00 00 00 00 
    195        86.756 DT     0230 Rx 8  00 00 00 00 FE 00 00 03 
    196        87.016 DT     025B Rx 8  01 F4 09 F4 E0 00 80 00 
    197        88.222 DT     0041 Rx 8  00 00 00 00 00 00 00 00 
    198        88.474 DT     0042 Rx 8  00 00 00 00 00 00 00 00 
    199        88.718 DT     042C Rx 8  84 00 00 00 17 B0 00 00 
    200        89.394 DT     005A Rx 8  00 00 00 0B F5 51 10 00 
    201        91.995 DT     0217 Rx 8  00 00 00 00 00 00 00 00 
    202        94.371 DT     007A Rx 8  00 00 02 88 BC 70 00 00 
    203        94.613 DT     007B Rx 8  7F 97 0A 20 00 00 00 00 
    204        95.050 DT     0167 Rx 8  03 80 00 11 FF E0 00 00 
    205        95.330 DT     0204 Rx 8  C0 00 7D 00 00 00 00 00 
    206        95.598 DT     0205 Rx 8  00 00 00 00 00 00 00 00 
    207        98.214 DT     0242 Rx 8  FF FF 20 27 D7 00 03 00 
    208        98.448 DT     042E Rx 8  66 A0 80 9E 82 66 00 00 
    209        98.692 DT     007E Rx 8  00 00 39 7B 00 0C 00 00 
    210        99.551 DT     0048 Rx 8  04 04 F1 79 DB B1 00 00 
    211       101.879 DT     04B0 Rx 8  01 00 FF FE 50 00 00 FA 
    212       102.201 DT     007D Rx 8  00 00 FA 50 00 3F EF FE 
    213       102.495 DT     007F Rx 8  00 00 FF F0 00 00 00 00 
    214       102.809 DT     0213 Rx 8  FF FF 00 14 00 11 FF 41 
    215       103.057 DT     0216 Rx 8  77 E9 4B 6C AA 00 08 2D 
    216       103.323 DT     0217 Rx 8  00 00 00 00 00 00 00 00 
    217       103.587 DT     0415 Rx 8  00 00 D4 F7 0F FE EF FE 
    218       104.300 DT     007A Rx 8  00 00 02 88 BC 70 00 00 
    219       104.542 DT     007B Rx 8  7F 97 0A 20 00 00 00 00 
    220       104.996 DT     0410 Rx 8  00 00 40 02 01 FF 83 00 
    221       105.244 DT     0047 Rx 8  04 B2 E1 11 B5 CC 00 00 
    222       105.531 DT     005C Rx 8  87 0C 00 00 A0 11 00 00 
    223       105.787 DT     0167 Rx 8  03 80 00 11 FF E0 00 00 
    224       106.051 DT     0176 Rx 8  00 00 00 10 00 00 00 00 
    225       106.351 DT     0185 Rx 8  01 E0 75 54 A2 40 00 00 
    226       106.633 DT     0202 Rx 8  07 00 00 00 20 00 00 00 
    227       106.913 DT     0203 Rx 8  00 00 00 00 00 00 00 00 
    228       107.181 DT     0204 Rx 8  C0 00 7D 00 00 00 00 00 
    229       107.499 DT     0205 Rx 8  00 00 00 00 00 00 00 00 
    230       107.806 DT     0230 Rx 8  00 00 00 00 FE 00 00 03 
    231       108.070 DT     025A Rx 8  00 01 90 00 00 00 00 00 
    232       108.338 DT     025B Rx 8  01 F4 09 F4 E0 00 80 00 
    233       108.590 DT     0041 Rx 8  00 00 00 00 00 00 00 00 
    234       108.842 DT     0042 Rx 8  00 00 00 00 00 00 00 00 
    235       111.978 DT     0217 Rx 8  00 00 00 00 00 00 00 00 
    236       113.020 DT     033D Rx 8  00 00 00 00 00 00 00 00 
    237       113.412 DT     043D Rx 8  40 08 DC 09 04 86 02 76 
    238       114.264 DT     007A Rx 8  00 00 02 88 BC 70 00 00 
    239       114.507 DT     007B Rx 8  7F 96 CA 20 00 00 00 00 
    240       115.261 DT     0167 Rx 8  03 80 00 11 FF E0 00 00 
    241       115.533 DT     0204 Rx 8  C0 00 7D 00 00 00 00 00 
    242       115.799 DT     0205 Rx 8  00 00 00 00 00 00 00 00 
    243       116.869 DT     0333 Rx 8  00 00 00 00 00 40 00 00 
    244       117.527 DT     0083 Rx 8  00 E0 80 00 00 92 F0 00 
    245       118.265 DT     039B Rx 8  FE 00 2F FE FF E2 88 00 
    246       118.506 DT     047E Rx 8  84 92 78 EF 60 00 54 30 
    247       118.930 DT     0430 Rx 8  02 02 48 74 FE 41 32 90 
    248       119.204 DT     0434 Rx 8  20 00 14 00 04 F7 00 00 
    249       119.460 DT     007E Rx 8  00 00 39 7B 00 0C 00 00 
    250       119.750 DT     0435 Rx 8  00 00 00 00 00 20 00 00 
    251       121.521 DT     0048 Rx 8  04 04 F1 79 DB B1 00 00 
    252       121.841 DT     0332 Rx 8  00 00 00 00 00 00 10 00 
    253       122.123 DT     04B0 Rx 8  01 00 FF FE 60 00 00 F9 
    254       122.385 DT     007D Rx 8  00 00 F9 60 00 3F EF FE 
    255       122.667 DT     007F Rx 8  00 00 FF F0 00 00 00 00 
    256       122.941 DT     0213 Rx 8  FF FF 00 14 00 11 FF 41 
    257       123.225 DT     0216 Rx 8  77 E9 4B 6C AA 00 09 31 
    258       123.520 DT     0217 Rx 8  00 00 00 00 00 00 00 00 
    259       123.786 DT     0415 Rx 8  00 00 D8 F6 0F FE EF FE 
    260       124.338 DT     007A Rx 8  00 00 02 88 BC 70 00 00 
    261       124.581 DT     007B Rx 8  7F 96 CA 20 00 00 00 00 
    262       124.983 DT     0047 Rx 8  04 B2 E1 11 B5 CC 00 00 
    263       125.403 DT     0167 Rx 8  03 80 00 11 FF E0 00 00 
    264       125.879 DT     0202 Rx 8  07 00 00 00 20 00 00 00 
    265       126.157 DT     0204 Rx 8  C0 00 7D 00 00 00 00 00 
    266       126.457 DT     0205 Rx 8  00 00 00 00 00 00 00 00 
    267       126.721 DT     0230 Rx 8  00 00 00 00 FE 00 00 03 
    268       127.007 DT     025B Rx 8  01 F4 09 F4 E0 00 80 00 
    269       128.324 DT     0041 Rx 8  00 00 00 00 00 00 00 00 
    270       128.576 DT     0042 Rx 8  00 00 00 00 00 00 00 00 
    271       131.961 DT     0217 Rx 8  00 00 00 00 00 00 00 00 
    272       134.491 DT     007A Rx 8  00 00 02 88 BC 70 00 00 
    273       134.733 DT     007B Rx 8  7F 97 0A 20 00 00 00 00 
    274       135.148 DT     0167 Rx 8  03 80 00 11 FF E0 00 00 
    275       135.424 DT     0204 Rx 8  C0 00 7D 00 00 00 00 00 
    276       135.694 DT     0205 Rx 8  00 00 00 00 00 00 00 00 
    277       138.212 DT     0242 Rx 8  FF FF 20 27 D7 00 03 00 
    278       138.460 DT     012F Rx 8  3F F3 3F FF FF FF FF FF 
    279       138.696 DT     0326 Rx 8  01 90 02 4C 01 90 00 C8 
    280       138.946 DT     0210 Rx 8  FF FF FF FF 00 00 00 00 
    281       139.190 DT     007E Rx 8  00 00 39 7B 00 0C 00 00 
    282       139.440 DT     026E Rx 8  00 00 00 00 00 00 00 00 
    283       139.684 DT     03A3 Rx 8  38 F8 20 F6 00 00 00 00 
    284       139.934 DT     037E Rx 8  00 08 00 00 00 00 00 00 
    285       140.172 DT     03B6 Rx 8  08 00 00 00 24 77 7C A6 
    286       140.415 DT     038D Rx 8  30 00 00 00 00 00 0C F0 
    287       140.653 DT     03B7 Rx 8  00 00 00 00 60 44 A3 C3 
    288       140.893 DT     03A4 Rx 8  42 CB 21 FF FF FF FF FF 
    289       141.141 DT     03B8 Rx 8  FF FF FF FF 00 00 00 00 
    290       141.385 DT     03B1 Rx 8  00 00 00 00 00 78 00 00 
    291       141.617 DT     042B Rx 8  D7 82 82 7A 50 38 EA 00 
    292       141.857 DT     03B9 Rx 8  48 00 00 04 00 06 3C 00 
    293       142.101 DT     042C Rx 8  84 00 00 00 17 B0 00 00 
    294       142.348 DT     007D Rx 8  00 00 F8 70 00 3F EF FE 
    295       142.584 DT     03BA Rx 8  24 25 55 80 20 00 00 10 
    296       142.836 DT     007F Rx 8  00 00 FF F0 00 00 00 00 
    297       143.266 DT     0080 Tx 8  01 02 03 04 00 00 00 00 
    298       143.070 DT     03BB Rx 8  FF FF 53 52 52 52 00 00 
    299       143.310 DT     0213 Rx 8  FF FF 00 14 00 11 FF 41 
    300       143.546 DT     0048 Rx 8  04 04 F1 79 DB B1 00 00 
    301       144.025 DT     0216 Rx 8  77 E9 4B 6C AA 00 0A 34 
    302       144.273 DT     03BD Rx 8  00 00 00 00 00 00 00 00 
    303       144.519 DT     007A Rx 8  00 00 02 88 BC 70 00 00 
    304       144.761 DT     007B Rx 8  7F 97 4A 20 00 00 00 00 
    305       145.010 DT     0217 Rx 8  00 00 00 00 00 00 00 00 
    306       145.244 DT     024B Rx 8  02 DE 07 81 9F 0A 74 BE 
    307       145.478 DT     0047 Rx 8  04 B2 E1 11 B5 CC 00 00 
    308       145.714 DT     024C Rx 8  4B A0 89 0C BE 00 40 03 
    309       145.957 DT     0167 Rx 8  03 80 00 11 FF E0 00 00 
    310       146.189 DT     0286 Rx 8  0B F1 17 E2 0B 5A 17 A5 
    311       146.435 DT     0202 Rx 8  07 00 00 00 20 00 00 00 
    312       146.680 DT     02E4 Rx 8  0A 00 00 00 01 75 00 00 
    313       146.930 DT     0204 Rx 8  C0 00 7D 00 00 00 00 00 
    314       147.180 DT     03C0 Rx 8  00 00 00 00 00 00 00 00 
    315       147.430 DT     0205 Rx 8  00 00 00 00 00 00 00 00 
    316       147.676 DT     03C6 Rx 8  00 00 20 01 00 00 00 00 
    317       147.924 DT     0230 Rx 8  00 00 00 00 FE 00 00 03 
    318       148.170 DT     03E3 Rx 8  00 00 04 10 80 00 00 00 
    319       148.412 DT     025B Rx 8  01 F4 09 F4 E0 00 80 00 
    320       148.651 DT     03EB Rx 8  59 14 04 00 00 2A 02 7C 
    321       148.903 DT     0041 Rx 8  00 00 00 00 00 00 00 00 
    322       149.155 DT     0042 Rx 8  00 00 00 00 00 00 00 00 
    323       149.385 DT     040A Rx 8  C1 00 31 46 54 56 57 31 
    324       149.625 DT     0415 Rx 8  00 00 DC F5 0F FE EF FE 
    325       149.873 DT     040D Rx 8  86 00 00 00 00 00 00 00 
    326       150.125 DT     0468 Rx 8  00 00 00 00 00 20 00 00 
    327       150.359 DT     042E Rx 8  66 A0 80 9E 82 66 00 00 
    328       150.607 DT     0469 Rx 8  00 00 00 00 00 00 00 00 
    329       150.856 DT     036F Rx 8  00 00 00 00 00 00 00 00 
    330       151.088 DT     043C Rx 8  33 84 5E 3B 27 D9 88 14 
    331       151.330 DT     046F Rx 8  09 EE 00 D9 00 00 00 00 
    332       151.576 DT     0447 Rx 8  32 00 00 00 04 00 00 00 
    333       151.801 DT     0490 Rx 8  A2 BA 29 A2 BA 2B A2 B0 
    334       152.047 DT     0456 Rx 8  80 00 00 00 00 00 00 00 
    335       152.273 DT     0491 Rx 8  A2 AA 2B A2 BA 2B A2 90 
    336       152.500 DT     0492 Rx 8  A2 AA 2A A2 AA 28 A2 A0 
    337       152.726 DT     0493 Rx 8  A2 9A 2A A2 8A 2A A2 A0 
    338       152.952 DT     0494 Rx 8  A2 8A 2A A2 AA 2A A2 A0 
    339       153.176 DT     0495 Rx 8  A2 9A 2A A2 AA 2B A2 A0 
    340       153.404 DT     0496 Rx 8  A2 AA 2A A2 BA 29 A2 A0 
    341       153.627 DT     0497 Rx 8  A2 AA 2A A2 9A 2A A2 90 
    342       153.855 DT     0498 Rx 8  A3 2A 2F A3 5A 32 A3 50 
    343       154.077 DT     0499 Rx 8  A3 0A 35 A3 1A 38 A3 30 
    344       154.302 DT     049A Rx 8  A2 BA 2A A2 DA 2B A2 C0 
    345       154.526 DT     049B Rx 8  A2 AA 2A A2 9A 2C A2 90 
    346       154.754 DT     049C Rx 8  A2 9A 29 A2 9A 28 A2 A0 
    347       155.001 DT     04B0 Rx 8  01 00 FF FE 70 00 00 F8 
    348       155.247 DT     007A Rx 8  00 00 02 88 BC 70 00 00 
    349       155.489 DT     007B Rx 8  7F 96 CA 20 00 00 00 00 
    350       155.732 DT     0167 Rx 8  03 80 00 11 FF E0 00 00 
    351       155.956 DT     049D Rx 8  A2 9A 28 A2 9A 29 A2 A0 
    352       156.206 DT     0204 Rx 8  C0 00 7D 00 00 00 00 00 
    353       156.428 DT     049E Rx 8  A2 8A 2A A2 6A 2D A2 70 
    354       156.679 DT     0205 Rx 8  00 00 00 00 00 00 00 00 
    355       156.903 DT     049F Rx 8  A2 CA 27 A2 CA 28 A2 B0 
    356       157.151 DT     0217 Rx 8  00 00 00 00 00 00 00 00 
    357       157.379 DT     04A0 Rx 8  A2 9A 29 A2 AA 2A A2 A0 
    358       157.622 DT     04DF Rx 8  50 F5 00 00 00 00 00 00 
    359       157.848 DT     04A1 Rx 8  A2 CA 28 A2 CA 2A A2 A0 
    360       158.142 DT     04A2 Rx 8  FF EF FE FF EF FE FF E0 
    361       158.386 DT     0084 Rx 8  19 00 00 3F 00 2F 00 00 
    362       158.617 DT     04A3 Rx 8  FF E0 44 44 44 45 45 45 
    363       158.865 DT     0455 Rx 8  00 80 00 00 00 00 00 00 
    364       159.097 DT     04A4 Rx 8  44 45 44 44 FE FE FE 00 
    365       159.341 DT     007E Rx 8  00 00 39 7B 00 0C 00 00 
    366       159.582 DT     04A7 Rx 8  FE FE FE FE FE FE 00 00 
    367       161.828 DT     04B0 Rx 8  01 00 FF FE 80 00 00 F7 
    368       162.154 DT     007D Rx 8  00 00 F7 80 00 3F EF FE 
    369       162.456 DT     007F Rx 8  00 00 FF F0 00 00 00 00 
    370       162.762 DT     0213 Rx 8  FF FF 00 14 00 11 FF 41 
    371       162.994 DT     043D Rx 8  40 08 DC 09 04 86 02 76 
    372       163.222 DT     0216 Rx 8  77 E9 4B 6C AA 00 0B 43 
    373       163.488 DT     0217 Rx 8  00 00 00 00 00 00 00 00 
    374       163.762 DT     0415 Rx 8  00 00 E0 F4 0F FE EF FE 
    375       164.439 DT     007A Rx 8  00 00 02 88 BC 70 00 00 
    376       164.681 DT     007B Rx 8  7F 96 CA 20 00 00 00 00 
    377       165.029 DT     0047 Rx 8  04 B2 E1 11 B5 CC 00 00 
    378       165.329 DT     0156 Rx 8  4B 00 00 00 01 00 00 00 
    379       165.566 DT     0048 Rx 8  04 04 F1 79 DB B1 00 00 
    380       165.808 DT     0167 Rx 8  03 80 00 11 FF E0 00 00 
    381       166.062 DT     0178 Rx 8  01 1C 02 00 4E 3F BE 3E 
    382       166.600 DT     0202 Rx 8  07 00 00 00 20 00 00 00 
    383       166.874 DT     0204 Rx 8  C0 00 7D 00 00 00 00 00 
    384       167.188 DT     0205 Rx 8  00 00 00 00 00 00 00 00 
    385       167.459 DT     0230 Rx 8  00 00 00 00 FE 00 00 03 
    386       167.731 DT     025B Rx 8  01 F4 09 F4 E0 00 80 00 
    387       167.999 DT     036E Rx 8  00 02 00 00 00 00 00 00 
    388       168.333 DT     0421 Rx 8  00 00 10 00 00 00 2D 00 
    389       168.585 DT     0041 Rx 8  00 00 00 00 00 00 00 00 
    390       168.837 DT     0042 Rx 8  00 00 00 00 00 00 00 00 
    391       169.074 DT     042D Rx 8  00 11 B8 27 37 00 00 00 
    392       169.362 DT     043E Rx 8  00 73 00 00 00 00 00 00 
    393       169.642 DT     043F Rx 8  00 01 00 00 00 00 00 00 
    394       169.918 DT     044C Rx 8  FE 00 00 00 00 00 00 00 
    395       170.200 DT     0480 Rx 8  C0 00 00 00 00 00 00 00 
    396       171.940 DT     0217 Rx 8  00 00 00 00 00 00 00 00 
    397       174.368 DT     007A Rx 8  00 00 02 88 BC 70 00 00 
    398       174.611 DT     007B Rx 8  7F 96 CA 20 00 00 00 00 
    399       175.277 DT     0167 Rx 8  03 80 00 11 FF E0 00 00 
    400       175.543 DT     0204 Rx 8  C0 00 7D 00 00 00 00 00 
    401       175.809 DT     0205 Rx 8  00 00 00 00 00 00 00 00 
    402       176.569 DT     02EC Rx 8  00 00 10 8D 01 45 60 D8 
    403       178.211 DT     0242 Rx 8  FF FF 20 27 D7 00 03 00 
    404       178.445 DT     042E Rx 8  66 A0 80 9E 82 66 00 00 
    405       178.942 DT     007E Rx 8  00 00 39 7B 00 0C 00 00 
    406       180.648 DT     0411 Rx 8  00 00 10 A2 AB AA 00 00 
    407       181.808 DT     04B0 Rx 8  01 00 FF FE 90 00 00 F6 
    408       182.134 DT     007D Rx 8  00 00 F6 90 00 3F EF FE 
    409       182.400 DT     007F Rx 8  00 00 FF F0 00 00 00 00 
    410       182.640 DT     012E Rx 8  A0 1D E3 FF FF FF FF FF 
    411       182.880 DT     0213 Rx 8  FF FF 00 14 00 11 FF 41 
    412       183.126 DT     0216 Rx 8  77 E9 4B 6C AA 00 0C 36 
    413       183.392 DT     0217 Rx 8  00 00 00 00 00 00 00 00 
    414       183.659 DT     0415 Rx 8  00 00 E4 F3 0F FE EF FE 
    415       184.365 DT     007A Rx 8  00 00 02 88 BC 70 00 00 
    416       184.607 DT     007B Rx 8  7F 96 CA 20 00 00 00 00 
    417       184.929 DT     0047 Rx 8  04 B2 E1 11 B5 CC 00 00 
    418       185.393 DT     0167 Rx 8  03 80 00 11 FF E0 00 00 
    419       185.868 DT     0202 Rx 8  07 00 00 00 20 00 00 00 
    420       186.140 DT     0204 Rx 8  C0 00 7D 00 00 00 00 00 
    421       186.438 DT     0205 Rx 8  00 00 00 00 00 00 00 00 
    422       186.702 DT     0230 Rx 8  00 00 00 00 FE 00 00 03 
    423       187.022 DT     025B Rx 8  01 F4 09 F4 E0 00 80 00 
    424       187.551 DT     0048 Rx 8  04 04 F1 79 DB B1 00 00 
    425       188.475 DT     0041 Rx 8  00 00 00 00 00 00 00 00 
    426       188.727 DT     0042 Rx 8  00 00 00 00 00 00 00 00 
    427       188.961 DT     03B4 Rx 8  40 11 11 FF 24 24 1C 00 
    428       189.205 DT     042C Rx 8  84 00 00 00 17 B0 00 00 
    429       189.451 DT     005A Rx 8  00 00 00 0B EB F1 10 00 
    430       191.913 DT     0217 Rx 8  00 00 00 00 00 00 00 00 
    431       194.370 DT     007A Rx 8  00 00 02 88 BC 70 00 00 
    432       194.612 DT     007B Rx 8  7F 97 0A 20 00 00 00 00 
    433       195.032 DT     0167 Rx 8  03 80 00 11 FF E0 00 00 
    434       195.310 DT     0204 Rx 8  C0 00 7D 00 00 00 00 00 
    435       195.576 DT     0205 Rx 8  00 00 00 00 00 00 00 00 
    436       198.238 DT     03A3 Rx 8  68 F2 20 F0 00 00 00 00 
    437       198.483 DT     03B5 Rx 8  01 06 00 FE 00 FE 00 FC 
    438       198.727 DT     007E Rx 8  00 00 39 7B 00 0C 00 00 
    439       201.789 DT     04B0 Rx 8  01 00 FF FE A0 00 00 F5 
    440       202.123 DT     007D Rx 8  00 00 F5 A0 00 3F EF FE 
    441       202.389 DT     007F Rx 8  00 00 FF F0 00 00 00 00 
    442       202.651 DT     0213 Rx 8  FF FF 00 14 00 11 FF 41 
    443       202.973 DT     0216 Rx 8  77 E9 4B 6C AA 00 0D 30 
    444       203.239 DT     0217 Rx 8  00 00 00 00 00 00 00 00 
    445       203.506 DT     0415 Rx 8  00 00 E8 F2 0F FE EF FE 
    446       204.296 DT     007A Rx 8  00 00 02 88 BC 70 00 00 
    447       204.538 DT     007B Rx 8  7F 96 CA 20 00 00 00 00 
    448       205.010 DT     0410 Rx 8  00 00 40 02 01 FF 83 00 
    449       205.310 DT     0047 Rx 8  04 B2 E1 11 B5 CC 00 00 
    450       205.566 DT     005C Rx 8  87 0C 00 00 A0 11 00 00 
    451       205.823 DT     0167 Rx 8  03 80 00 11 FF E0 00 00 
    452       206.123 DT     0176 Rx 8  00 00 00 10 00 00 00 00 
    453       206.375 DT     0185 Rx 8  01 E0 75 54 A2 40 00 00 
    454       206.687 DT     0202 Rx 8  07 00 00 00 20 00 00 00 
    455       206.995 DT     0203 Rx 8  00 00 00 00 00 00 00 00 
    456       207.265 DT     0204 Rx 8  C0 00 7D 00 00 00 00 00 
    457       207.575 DT     0205 Rx 8  00 00 00 00 00 00 00 00 
    458       207.842 DT     0230 Rx 8  00 00 00 00 FE 00 00 03 
    459       208.130 DT     025A Rx 8  00 01 90 00 00 00 00 00 
    460       208.382 DT     0041 Rx 8  00 00 00 00 00 00 00 00 
    461       208.634 DT     0042 Rx 8  00 00 00 00 00 00 00 00 
    462       208.876 DT     025B Rx 8  01 F4 09 F4 E0 00 80 00 
    463       209.542 DT     0048 Rx 8  04 04 F1 79 DB B1 00 00 
    464       211.895 DT     0217 Rx 8  00 00 00 00 00 00 00 00 
    465       213.006 DT     033D Rx 8  00 00 00 00 00 00 00 00 
    466       213.400 DT     043D Rx 8  40 08 DC 09 04 86 02 76 
    467       214.261 DT     007A Rx 8  00 00 02 88 BC 70 00 00 
    468       214.505 DT     007B Rx 8  7F 96 8A 20 00 00 00 00 
    469       215.165 DT     0167 Rx 8  03 80 00 11 FF E0 00 00 
    470       215.431 DT     0204 Rx 8  C0 00 7D 00 00 00 00 00 
    471       215.697 DT     0205 Rx 8  00 00 00 00 00 00 00 00 
    472       216.870 DT     0333 Rx 8  00 00 00 00 00 40 00 00 
    473       217.498 DT     0083 Rx 8  00 E0 80 00 00 92 F0 00 
    474       217.792 DT     059E Rx 8  9E 00 FF FF FF FF FF FF 
    475       218.210 DT     0242 Rx 8  FF FF 20 27 D7 00 03 00 
    476       218.450 DT     039B Rx 8  FE 00 2F FE FF E2 88 00 
    477       218.700 DT     03C7 Rx 8  00 00 40 00 00 00 00 00 
    478       218.933 DT     047E Rx 8  64 92 78 F0 60 00 54 60 
    479       219.167 DT     042E Rx 8  66 A0 80 9E 82 66 00 00 
    480       219.415 DT     0437 Rx 8  00 00 00 00 00 00 00 00 
    481       219.685 DT     0386 Rx 8  00 00 00 00 00 00 00 00 
    482       219.991 DT     028F Rx 8  FF FD FF FB FF F7 FC 00 
    483       220.267 DT     032A Rx 8  00 03 00 10 02 00 00 00 
    484       220.539 DT     0375 Rx 8  B2 F0 00 00 00 00 7F FF 
    485       220.815 DT     0430 Rx 8  02 02 48 74 FE 41 32 90 
    486       221.086 DT     0434 Rx 8  20 00 14 00 04 F7 00 00 
    487       221.368 DT     041A Rx 8  00 00 01 08 00 00 00 00 
    488       221.648 DT     0233 Rx 8  00 00 FF F0 00 00 00 00 
    489       221.916 DT     028A Rx 8  0E D4 00 00 00 00 00 00 
    490       222.244 DT     007D Rx 8  00 00 F4 B0 00 3F EF FE 
    491       222.576 DT     007E Rx 8  00 00 39 7B 00 0C 00 00 
    492       222.902 DT     007F Rx 8  00 00 FF F0 00 00 00 00 
    493       223.165 DT     0213 Rx 8  FF FF 00 14 00 11 FF 41 
    494       223.441 DT     0216 Rx 8  77 E9 4B 6C AA 00 0E 32 
    495       223.705 DT     0217 Rx 8  00 00 00 00 00 00 00 00 
    496       223.983 DT     02F1 Rx 8  00 00 30 00 00 03 40 00 
    497       224.253 DT     0332 Rx 8  00 00 00 00 00 00 10 00 
    498       224.499 DT     007A Rx 8  00 00 02 88 BC 70 00 00 
    499       224.742 DT     007B Rx 8  7F 96 CA 20 00 00 00 00 
    500       224.980 DT     0415 Rx 8  00 00 EC F1 0F FE EF FE 
    501       225.226 DT     0047 Rx 8  04 B2 E1 11 B5 CC 00 00 
    502       225.534 DT     0167 Rx 8  03 80 00 11 FF E0 00 00 
    503       225.814 DT     0435 Rx 8  00 00 00 00 00 20 00 00 
    504       226.138 DT     0202 Rx 8  07 00 00 00 20 00 00 00 
    505       226.442 DT     0204 Rx 8  C0 00 7D 00 00 00 00 00 
    506       226.711 DT     0205 Rx 8  00 00 00 00 00 00 00 00 
    507       227.015 DT     0230 Rx 8  00 00 00 00 FE 00 00 03 
    508       227.277 DT     025B Rx 8  01 F4 09 F4 E0 00 80 00 
    509       227.543 DT     0439 Rx 8  93 11 00 40 07 00 00 00 
    510       227.819 DT     043A Rx 8  40 3C 00 00 80 00 00 40 
    511       228.095 DT     0446 Rx 8  00 00 00 00 00 00 00 00 
    512       228.371 DT     0487 Rx 8  00 00 00 00 00 10 FF FD 
    513       228.624 DT     0041 Rx 8  00 00 00 00 00 00 00 00 
    514       228.876 DT     0042 Rx 8  00 00 00 00 00 00 00 00 
    515       229.126 DT     0488 Rx 8  00 00 00 00 00 00 00 00 
    516       229.402 DT     04B0 Rx 8  01 00 FF FE B0 00 00 F4 
    517       229.680 DT     04C0 Rx 8  00 00 00 00 00 00 00 00 
    518       229.964 DT     04C1 Rx 8  00 00 00 00 00 00 00 00 
    519       231.547 DT     0048 Rx 8  04 04 F1 79 DB B1 00 00 
    520       231.930 DT     0217 Rx 8  00 00 00 00 00 00 00 00 
    521       234.386 DT     007A Rx 8  00 00 02 88 BC 70 00 00 
    522       234.628 DT     007B Rx 8  7F 96 CA 20 00 00 00 00 
    523       235.064 DT     0167 Rx 8  03 80 00 11 FF E0 00 00 
    524       235.417 DT     0204 Rx 8  C0 00 7D 00 00 00 00 00 
    525       235.683 DT     0205 Rx 8  00 00 00 00 00 00 00 00 
    526       238.213 DT     03B3 Rx 8  10 80 06 00 E6 00 00 00 
    527       238.455 DT     012F Rx 8  B1 F4 3F FF FF FF FF FF 
    528       238.687 DT     042B Rx 8  D7 82 82 7A 50 38 EA 00 
    529       238.931 DT     007E Rx 8  00 00 39 7B 00 0C 00 00 
    530       239.174 DT     03C3 Rx 8  40 CC 00 00 00 00 80 00 
    531       239.410 DT     0326 Rx 8  01 90 02 4C 01 90 00 C8 
    532       239.654 DT     042C Rx 8  84 00 00 00 17 B0 00 00 
    533       241.756 DT     04B0 Rx 8  01 00 FF FE C0 00 00 F3 
    534       242.092 DT     007D Rx 8  00 00 F3 C0 00 3F EF FE 
    535       242.356 DT     007F Rx 8  00 00 FF F0 00 00 00 00 
    536       242.614 DT     0213 Rx 8  FF FF 00 14 00 11 FF 41 
    537       242.902 DT     0216 Rx 8  77 E9 4B 6C AA 00 0F 2D 
    538       243.191 DT     0217 Rx 8  00 00 00 00 00 00 00 00 
    539       243.459 DT     0415 Rx 8  00 00 F0 F0 0F FE EF FE 
    540       244.369 DT     007A Rx 8  00 00 02 88 BC 70 00 00 
    541       244.611 DT     007B Rx 8  7F 97 0A 20 00 00 00 00 
    542       244.846 DT     024B Rx 8  02 DE 07 81 9F 0A 74 BE 
    543       245.080 DT     0047 Rx 8  04 B2 E1 11 B5 CC 00 00 
    544       245.316 DT     024C Rx 8  4B A0 89 0C BE 00 40 03 
    545       245.558 DT     0167 Rx 8  03 80 00 11 FF E0 00 00 
    546       245.791 DT     0286 Rx 8  0B F1 17 E2 0B 5A 17 A5 
    547       246.037 DT     0202 Rx 8  07 00 00 00 20 00 00 00 
    548       246.281 DT     02E4 Rx 8  0A 00 00 00 01 75 00 00 
    549       246.531 DT     0204 Rx 8  C0 00 7D 00 00 00 00 00 
    550       246.774 DT     046F Rx 8  09 EE 00 D9 00 00 00 00 
    551       247.024 DT     0205 Rx 8  00 00 00 00 00 00 00 00 
    552       247.248 DT     0490 Rx 8  A2 AA 29 A2 CA 2A A2 B0 
    553       247.496 DT     0230 Rx 8  00 00 00 00 FE 00 00 03 
    554       247.723 DT     0491 Rx 8  A2 AA 2A A2 AA 2B A2 A0 
    555       247.965 DT     025B Rx 8  01 F4 09 F4 E0 00 80 00 
    556       248.191 DT     0492 Rx 8  A2 AA 2B A2 AA 29 A2 A0 
    557       248.415 DT     0493 Rx 8  A2 9A 2A A2 AA 27 A2 D0 
    558       248.668 DT     0041 Rx 8  00 00 00 00 00 00 00 00 
    559       248.920 DT     0042 Rx 8  00 00 00 00 00 00 00 00 
    560       249.146 DT     0494 Rx 8  A2 6A 2C A2 9A 29 A2 B0 
    561       249.372 DT     0495 Rx 8  A2 9A 2B A2 AA 2A A2 A0 
    562       249.596 DT     0496 Rx 8  A2 AA 2B A2 AA 2A A2 A0 
    563       249.821 DT     0497 Rx 8  A2 AA 27 A2 CA 26 A2 E0 
    564       250.051 DT     0498 Rx 8  A2 EA 35 A2 EA 39 A3 00 
    565       250.273 DT     0499 Rx 8  A3 4A 31 A3 8A 32 A3 70 
    566       250.498 DT     049A Rx 8  A2 8A 2B A2 DA 2C A2 B0 
    567       250.720 DT     049B Rx 8  A2 AA 2A A2 AA 2B A2 B0 
    568       250.948 DT     049C Rx 8  A2 8A 2B A2 7A 2A A2 80 
    569       251.199 DT     04DF Rx 8  20 FB 00 00 00 00 00 00 
    570       251.425 DT     049D Rx 8  A2 7A 2A A2 8A 29 A2 90 
    571       251.695 DT     049E Rx 8  A2 8A 29 A2 9A 29 A2 A0 
    572       251.943 DT     0217 Rx 8  00 00 00 00 00 00 00 00 
    573       252.171 DT     049F Rx 8  A2 AA 29 A2 AA 2A A2 A0 
    574       252.456 DT     04A0 Rx 8  A2 9A 2A A2 BA 2A A2 A0 
    575       252.734 DT     04A1 Rx 8  A2 9A 2A A2 9A 2B A2 90 
    576       253.030 DT     04A2 Rx 8  FF EF FE FF EF FE FF E0 
    577       253.309 DT     04A3 Rx 8  FF E0 44 44 44 45 45 45 
    578       253.545 DT     0048 Rx 8  04 04 F1 79 DB B1 00 00 
    579       253.777 DT     04A4 Rx 8  44 45 44 44 FE FE FE 00 
    580       254.072 DT     04A7 Rx 8  FE FE FE FE FE FE 00 00 
    581       255.054 DT     0167 Rx 8  03 80 00 11 FF E0 00 00 
    582       255.300 DT     007A Rx 8  00 00 02 88 BC 70 00 00 
    583       255.544 DT     007B Rx 8  7F 96 8A 20 00 00 00 00 
    584       255.795 DT     0204 Rx 8  C0 00 7D 00 00 00 00 00 
    585       256.063 DT     0205 Rx 8  00 00 00 00 00 00 00 00 
    586       258.209 DT     0242 Rx 8  FF FF 20 27 D7 00 03 00 
    587       258.453 DT     03A3 Rx 8  18 FC 20 FA 00 00 00 00 
    588       258.687 DT     042E Rx 8  66 A0 80 9E 82 66 00 00 
    589       258.935 DT     0455 Rx 8  00 80 00 00 00 00 00 00 
    590       259.193 DT     007E Rx 8  00 00 39 7B 00 0C 00 00 
    591       261.739 DT     04B0 Rx 8  01 00 FF FE D0 00 00 F2 
    592       262.068 DT     007D Rx 8  00 00 F2 D0 00 3F EF FE 
    593       262.332 DT     007F Rx 8  00 00 FF F0 00 00 00 00 
    594       262.590 DT     0213 Rx 8  FF FF 00 14 00 11 FF 41 
    595       262.892 DT     0216 Rx 8  77 E9 4B 6C AA 00 10 56 
    596       263.124 DT     043D Rx 8  40 08 DC 09 04 86 02 76 
    597       263.372 DT     0217 Rx 8  00 00 00 00 00 00 00 00 
    598       263.636 DT     0415 Rx 8  00 00 F4 EF 0F FE EF FE 
    599       264.372 DT     007A Rx 8  00 00 02 88 BC 70 00 00 
    600       264.615 DT     007B Rx 8  7F 96 CA 20 00 00 00 00 
    601       265.045 DT     0047 Rx 8  04 B2 E1 11 B5 CC 00 00 
    602       265.387 DT     0156 Rx 8  4B 00 00 00 01 00 00 00 
    603       265.727 DT     0167 Rx 8  03 80 00 11 FF E0 00 00 
    604       266.087 DT     0178 Rx 8  01 1C 02 00 4E 3F BE 3E 
    605       266.543 DT     0202 Rx 8  07 00 00 00 20 00 00 00 
    606       266.818 DT     0204 Rx 8  C0 00 7D 00 00 00 00 00 
    607       267.146 DT     0205 Rx 8  00 00 00 00 00 00 00 00 
    608       267.486 DT     0230 Rx 8  00 00 00 00 FE 00 00 03 
    609       267.746 DT     025B Rx 8  01 F4 09 F4 E0 00 80 00 
    610       268.046 DT     0421 Rx 8  00 00 10 00 00 00 2D 00 
    611       268.308 DT     042D Rx 8  00 11 B8 27 37 00 00 00 
    612       268.584 DT     043E Rx 8  00 73 00 00 00 00 00 00 
    613       268.936 DT     0041 Rx 8  00 00 00 00 00 00 00 00 
    614       269.189 DT     0042 Rx 8  00 00 00 00 00 00 00 00 
    615       271.965 DT     0217 Rx 8  00 00 00 00 00 00 00 00 
    616       274.367 DT     007A Rx 8  00 00 02 88 BC 70 00 00 
    617       274.611 DT     007B Rx 8  7F 96 8A 20 00 00 00 00 
    618       275.035 DT     0167 Rx 8  03 80 00 11 FF E0 00 00 
    619       275.315 DT     0204 Rx 8  C0 00 7D 00 00 00 00 00 
    620       275.552 DT     0048 Rx 8  04 04 F1 79 DB B1 00 00 
    621       275.802 DT     0205 Rx 8  00 00 00 00 00 00 00 00 
    622       276.600 DT     02EC Rx 8  00 00 10 8D 01 45 60 D7 
    623       278.708 DT     007E Rx 8  00 00 39 7B 00 0C 00 00 
    624       280.586 DT     0411 Rx 8  00 00 10 A2 AB AA 00 00 
    625       281.732 DT     04B0 Rx 8  01 00 FF FE E0 00 00 F1 
    626       282.060 DT     007D Rx 8  00 00 F1 E0 00 3F EF FE 
    627       282.329 DT     007F Rx 8  00 00 FF F0 00 00 00 00 
    628       282.575 DT     012E Rx 8  47 1E E3 FF FF FF FF FF 
    629       282.815 DT     0213 Rx 8  FF FF 00 14 00 11 FF 41 
    630       283.063 DT     0216 Rx 8  77 E9 4B 6C AA 00 11 41 
    631       283.361 DT     0217 Rx 8  00 00 00 00 00 00 00 00 
    632       283.629 DT     0415 Rx 8  00 00 F8 EE 0F FE EF FE 
    633       284.313 DT     007A Rx 8  00 00 02 88 BC 70 00 00 
    634       284.556 DT     007B Rx 8  7F 97 0A 20 00 00 00 00 
    635       284.920 DT     0047 Rx 8  04 B2 E1 11 B5 CC 00 00 
    636       285.388 DT     0167 Rx 8  03 80 00 11 FF E0 00 00 
    637       285.862 DT     0202 Rx 8  07 00 00 00 20 00 00 00 
    638       286.150 DT     0204 Rx 8  C0 00 7D 00 00 00 00 00 
    639       286.420 DT     0205 Rx 8  00 00 00 00 00 00 00 00 
    640       286.687 DT     0230 Rx 8  00 00 00 00 FE 00 00 03 
    641       286.993 DT     025B Rx 8  01 F4 09 F4 E0 00 80 00 
    642       288.345 DT     0041 Rx 8  00 00 00 00 00 00 00 00 
    643       288.597 DT     0042 Rx 8  00 00 00 00 00 00 00 00 
    644       288.841 DT     042C Rx 8  84 00 00 00 17 B0 00 00 
    645       289.375 DT     005A Rx 8  00 00 00 0B F1 91 10 00 
    646       291.831 DT     0217 Rx 8  00 00 00 00 00 00 00 00 
    647       294.281 DT     007A Rx 8  00 00 02 88 BC 70 00 00 
    648       294.524 DT     007B Rx 8  7F 97 4A 20 00 00 00 00 
    649       295.272 DT     0167 Rx 8  03 80 00 11 FF E0 00 00 
    650       295.550 DT     0204 Rx 8  C0 00 7D 00 00 00 00 00 
    651       295.816 DT     0205 Rx 8  00 00 00 00 00 00 00 00 
    652       297.553 DT     0048 Rx 8  04 04 F1 79 DB B1 00 00 
    653       298.209 DT     0242 Rx 8  FF FF 20 27 D7 00 03 00 
    654       298.443 DT     042E Rx 8  66 A0 80 9E 82 66 00 00 
    655       298.691 DT     007E Rx 8  00 00 39 7B 00 0C 00 00 
    656       301.711 DT     04B0 Rx 8  01 00 FF FE F0 00 00 F0 
    657       302.039 DT     007D Rx 8  00 00 F0 F0 00 3F EF FE 
    658       302.306 DT     007F Rx 8  00 00 FF F0 00 00 00 00 
    659       302.572 DT     0213 Rx 8  FF FF 00 14 00 11 FF 41 
    660       302.866 DT     0216 Rx 8  77 E9 4B 6C AA 00 12 43 
    661       303.132 DT     0217 Rx 8  00 00 00 00 00 00 00 00 
    662       303.398 DT     0415 Rx 8  00 00 FC ED 0F FE EF FE 
    663       304.150 DT     007A Rx 8  00 00 02 88 BC 70 00 00 
    664       304.393 DT     007B Rx 8  7F 96 CA 20 00 00 00 00 
    665       304.999 DT     0410 Rx 8  00 00 40 02 01 FF 83 00 
    666       305.251 DT     0047 Rx 8  04 B2 E1 11 B5 CC 00 00 
    667       305.557 DT     005C Rx 8  87 0C 00 00 A0 11 00 00 
    668       305.813 DT     0167 Rx 8  03 80 00 11 FF E0 00 00 
    669       306.100 DT     0176 Rx 8  00 00 00 10 00 00 00 00 
    670       306.354 DT     0185 Rx 8  01 E0 75 54 A2 40 00 00 
    671       306.618 DT     0202 Rx 8  07 00 00 00 20 00 00 00 
    672       306.916 DT     0203 Rx 8  00 00 00 00 00 00 00 00 
    673       307.184 DT     0204 Rx 8  C0 00 7D 00 00 00 00 00 
    674       307.498 DT     0205 Rx 8  00 00 00 00 00 00 00 00 
    675       307.807 DT     0230 Rx 8  00 00 00 00 FE 00 00 03 
    676       308.071 DT     025A Rx 8  00 01 90 00 00 00 00 00 
    677       308.333 DT     025B Rx 8  01 F4 09 F4 E0 00 80 00 
    678       308.727 DT     0041 Rx 8  00 00 00 00 00 00 00 00 
    679       308.979 DT     0042 Rx 8  00 00 00 00 00 00 00 00 
    680       311.813 DT     0217 Rx 8  00 00 00 00 00 00 00 00 
    681       312.993 DT     033D Rx 8  00 00 00 00 00 00 00 00 
    682       313.387 DT     043D Rx 8  40 08 DC 09 04 86 02 76 
    683       314.188 DT     007A Rx 8  00 00 02 88 BC 70 00 00 
    684       314.430 DT     007B Rx 8  7F 96 CA 20 00 00 00 00 
    685       315.086 DT     0167 Rx 8  03 80 00 11 FF E0 00 00 
    686       315.356 DT     0204 Rx 8  C0 00 7D 00 00 00 00 00 
    687       315.624 DT     0205 Rx 8  00 00 00 00 00 00 00 00 
    688       316.858 DT     0333 Rx 8  00 00 00 00 00 40 00 00 
    689       317.541 DT     0083 Rx 8  00 E0 80 00 00 92 F0 00 
    690       318.233 DT     03A3 Rx 8  48 F6 20 F4 00 00 00 00 
    691       318.473 DT     039B Rx 8  FE 00 2F FE FF E2 88 00 
    692       318.887 DT     0430 Rx 8  02 02 48 74 FE 41 32 90 
    693       319.173 DT     0434 Rx 8  20 00 14 00 04 F7 00 00 
    694       319.429 DT     007E Rx 8  00 00 39 7B 00 0C 00 00 
    695       319.666 DT     0048 Rx 8  04 04 F1 79 DB B1 00 00 
    696       319.914 DT     0435 Rx 8  00 00 00 00 00 20 00 00 
    697       321.678 DT     0332 Rx 8  00 00 00 00 00 00 10 00 
    698       321.958 DT     04B0 Rx 8  01 00 FF FE 00 00 00 FF 
    699       322.220 DT     007D Rx 8  00 00 FF 00 00 3F EF FE 
    700       322.508 DT     007F Rx 8  00 00 FF F0 00 00 00 00 
    701       322.787 DT     0213 Rx 8  FF FF 00 14 00 11 FF 41 
    702       323.055 DT     0216 Rx 8  77 E9 4B 6C AA 00 13 00 
    703       323.325 DT     0217 Rx 8  00 00 00 00 00 00 00 00 
    704       323.625 DT     0415 Rx 8  00 00 C0 FC 0F FE EF FE 
    705       324.335 DT     007A Rx 8  00 00 02 88 BC 70 00 00 
    706       324.578 DT     007B Rx 8  7F 96 CA 20 00 00 00 00 
    707       325.054 DT     0047 Rx 8  04 B2 E1 11 B5 CC 00 00 
    708       325.518 DT     0167 Rx 8  03 80 00 11 FF E0 00 00 
    709       326.000 DT     0202 Rx 8  07 00 00 00 20 00 00 00 
    710       326.272 DT     0204 Rx 8  C0 00 7D 00 00 00 00 00 
    711       326.576 DT     0205 Rx 8  00 00 00 00 00 00 00 00 
    712       326.845 DT     0230 Rx 8  00 00 00 00 FE 00 00 03 
    713       327.109 DT     025B Rx 8  01 F4 09 F4 E0 00 80 00 
    714       328.327 DT     0041 Rx 8  00 00 00 00 00 00 00 00 
    715       328.579 DT     0042 Rx 8  00 00 00 00 00 00 00 00 
    716       331.803 DT     0217 Rx 8  00 00 00 00 00 00 00 00 
    717       334.380 DT     007A Rx 8  00 00 02 88 BC 70 00 00 
    718       334.623 DT     007B Rx 8  7F 97 0A 20 00 00 00 00 
    719       335.059 DT     0167 Rx 8  03 80 00 11 FF E0 00 00 
    720       335.335 DT     0204 Rx 8  C0 00 7D 00 00 00 00 00 
    721       335.601 DT     0205 Rx 8  00 00 00 00 00 00 00 00 
    722       338.207 DT     0242 Rx 8  FF FF 20 27 D7 00 03 00 
    723       338.449 DT     012F Rx 8  EC F5 3F FF FF FF FF FF 
    724       338.686 DT     0326 Rx 8  01 90 02 4C 01 90 00 C8 
    725       338.936 DT     026E Rx 8  00 00 00 00 00 00 00 00 
    726       339.180 DT     007E Rx 8  00 00 39 7B 00 0C 00 00 
    727       339.430 DT     037E Rx 8  00 08 00 00 00 00 00 00 
    728       339.662 DT     042B Rx 8  D7 82 82 7A 50 38 EA 00 
    729       339.906 DT     03A4 Rx 8  CC CC 21 FF FF FF FF FF 
    730       340.150 DT     042C Rx 8  84 00 00 00 17 B0 00 00 
    731       340.378 DT     040A Rx 8  C1 01 45 4C 33 4E 57 47 
    732       340.631 DT     0468 Rx 8  00 00 00 00 00 20 00 00 
    733       340.865 DT     042E Rx 8  66 A0 80 9E 82 66 00 00 
    734       341.113 DT     0469 Rx 8  00 00 00 00 00 00 00 00 
    735       341.535 DT     0048 Rx 8  04 04 F1 79 DB B1 00 00 
    736       341.783 DT     04B0 Rx 8  01 00 FF FE 10 00 00 FE 
    737       342.060 DT     007D Rx 8  00 00 FE 10 00 3F EF FE 
    738       342.324 DT     007F Rx 8  00 00 FF F0 00 00 00 00 
    739       342.616 DT     0213 Rx 8  FF FF 00 14 00 11 FF 41 
    740       342.870 DT     0216 Rx 8  77 E9 4B 6C AA 00 14 10 
    741       343.142 DT     0217 Rx 8  00 00 00 00 00 00 00 00 
    742       343.406 DT     0415 Rx 8  00 00 C4 FB 0F FE EF FE 
    743       344.364 DT     007A Rx 8  00 00 02 88 BC 70 00 00 
    744       344.607 DT     007B Rx 8  7F 97 4A 20 00 00 00 00 
    745       344.841 DT     024B Rx 8  02 DE 07 81 9F 0A 74 BE 
    746       345.075 DT     0047 Rx 8  04 B2 E1 11 B5 CC 00 00 
    747       345.311 DT     024C Rx 8  4B A0 89 0C BE 00 40 03 
    748       345.554 DT     0167 Rx 8  03 80 00 11 FF E0 00 00 
    749       345.786 DT     0286 Rx 8  0B F1 17 E2 0B 5A 17 A5 
    750       346.032 DT     0202 Rx 8  07 00 00 00 20 00 00 00 
    751       346.277 DT     02E4 Rx 8  0A 00 00 00 01 75 00 00 
    752       346.527 DT     0204 Rx 8  C0 00 7D 00 00 00 00 00 
    753       346.769 DT     046F Rx 8  09 EE 00 D9 00 00 00 00 
    754       347.019 DT     0205 Rx 8  00 00 00 00 00 00 00 00 
    755       347.243 DT     0490 Rx 8  A2 BA 2A A2 CA 2A A2 B0 
    756       347.492 DT     0230 Rx 8  00 00 00 00 FE 00 00 03 
    757       347.718 DT     0491 Rx 8  A2 AA 2A A2 AA 2B A2 A0 
    758       347.960 DT     025B Rx 8  01 F4 09 F4 E0 00 80 00 
    759       348.184 DT     0492 Rx 8  A2 AA 2B A2 AA 29 A2 B0 
    760       348.425 DT     02F5 Rx 8  11 09 A5 00 00 00 00 00 
    761       348.677 DT     0041 Rx 8  00 00 00 00 00 00 00 00 
    762       348.929 DT     0042 Rx 8  00 00 00 00 00 00 00 00 
    763       349.157 DT     0493 Rx 8  A2 9A 2A A2 8A 29 A2 A0 
    764       349.383 DT     0494 Rx 8  A2 7A 2A A2 9A 2A A2 C0 
    765       349.614 DT     0495 Rx 8  A2 AA 2B A2 AA 2B A2 A0 
    766       349.838 DT     0496 Rx 8  A2 AA 2A A2 AA 28 A2 A0 
    767       350.086 DT     0390 Rx 8  00 00 14 00 00 00 00 00 
    768       350.310 DT     0497 Rx 8  A2 AA 2B A2 9A 2A A2 A0 
    769       350.536 DT     0498 Rx 8  A3 3A 2E A3 5A 31 A3 60 
    770       350.785 DT     036A Rx 8  A8 00 08 00 00 00 00 00 
    771       351.013 DT     0499 Rx 8  A2 FA 37 A3 2A 3B A3 30 
    772       351.261 DT     036F Rx 8  00 00 00 00 00 00 00 00 
    773       351.489 DT     049A Rx 8  A2 CA 29 A2 CA 2A A2 B0 
    774       351.711 DT     049B Rx 8  A2 AA 2B A2 AA 2C A2 B0 
    775       351.960 DT     0217 Rx 8  00 00 00 00 00 00 00 00 
    776       352.186 DT     049C Rx 8  A2 8A 28 A2 9A 28 A2 A0 
    777       352.428 DT     04DF Rx 8  70 F1 00 00 00 00 00 00 
    778       352.654 DT     049D Rx 8  A2 8A 29 A2 9A 28 A2 A0 
    779       352.925 DT     049E Rx 8  A2 7A 2B A2 7A 2C A2 70 
    780       353.199 DT     049F Rx 8  A2 BA 26 A2 BA 28 A2 A0 
    781       353.487 DT     04A0 Rx 8  A2 AA 2C A2 CA 2A A2 A0 
    782       353.778 DT     04A1 Rx 8  A2 BA 27 A2 BA 2A A2 B0 
    783       354.074 DT     04A2 Rx 8  FF EF FE FF EF FE FF E0 
    784       354.366 DT     04A3 Rx 8  FF E0 44 44 44 45 45 45 
    785       354.671 DT     04A4 Rx 8  44 45 44 44 FE FE FE 00 
    786       354.977 DT     04A7 Rx 8  FE FE FE FE FE FE 00 00 
    787       355.219 DT     0167 Rx 8  03 80 00 11 FF E0 00 00 
    788       355.465 DT     007A Rx 8  00 00 02 88 BC 70 00 00 
    789       355.710 DT     007B Rx 8  7F 96 8A 20 00 00 00 00 
    790       355.960 DT     0204 Rx 8  C0 00 7D 00 00 00 00 00 
    791       356.228 DT     0205 Rx 8  00 00 00 00 00 00 00 00 
    792       358.710 DT     032B Rx 8  00 00 00 00 00 1E FC E4 
    793       359.018 DT     007E Rx 8  00 00 39 7B 00 0C 00 00 
    794       360.447 DT     0215 Rx 8  00 00 00 00 C0 C0 F0 04 
    795       360.773 DT     0330 Rx 8  00 00 00 06 00 10 00 00 
    796       361.665 DT     04B0 Rx 8  01 00 FF FE 20 00 00 FD 
    797       362.027 DT     007D Rx 8  00 00 FD 20 00 3F EF FE 
    798       362.295 DT     007F Rx 8  00 00 FF F0 00 00 00 00 
    799       362.591 DT     0213 Rx 8  FF FF 00 14 00 11 FF 41 
    800       362.849 DT     0216 Rx 8  77 E9 4B 6C AA 00 15 01 
    801       363.081 DT     043D Rx 8  40 08 DC 09 04 86 02 76 
    802       363.329 DT     0217 Rx 8  00 00 00 00 00 00 00 00 
    803       363.566 DT     0048 Rx 8  04 04 F1 79 DB B1 00 00 
    804       363.808 DT     0415 Rx 8  00 00 C8 FA 0F FE EF FE 
    805       364.366 DT     007A Rx 8  00 00 02 88 BC 70 00 00 
    806       364.608 DT     007B Rx 8  7F 96 CA 20 00 00 00 00 
    807       364.989 DT     0047 Rx 8  04 B2 E1 11 B5 CC 00 00 
    808       365.333 DT     0156 Rx 8  4B 00 00 00 01 00 00 00 
    809       365.605 DT     03DA Rx 8  00 00 00 FF C3 FE 00 00 
    810       365.871 DT     0167 Rx 8  03 80 00 11 FF E0 00 00 
    811       366.135 DT     0178 Rx 8  01 1C 02 00 4E 3F BE 3E 
    812       366.413 DT     03E2 Rx 8  00 00 00 00 80 00 00 00 
    813       366.699 DT     0202 Rx 8  07 00 00 00 20 00 00 00 
    814       367.079 DT     0204 Rx 8  C0 00 7D 00 00 00 00 00 
    815       367.346 DT     0205 Rx 8  00 00 00 00 00 00 00 00 
    816       367.612 DT     0230 Rx 8  00 00 00 00 FE 00 00 03 
    817       367.874 DT     025B Rx 8  01 F4 09 F4 E0 00 80 00 
    818       368.148 DT     03EA Rx 8  00 00 00 00 00 00 60 80 
    819       368.422 DT     0421 Rx 8  00 00 10 00 00 00 2D 00 
    820       368.674 DT     0041 Rx 8  00 00 00 00 00 00 00 00 
    821       368.926 DT     0042 Rx 8  00 00 00 00 00 00 00 00 
    822       369.162 DT     042D Rx 8  00 11 B8 27 37 00 00 00 
    823       369.483 DT     043E Rx 8  00 73 00 00 00 00 00 00 
    824       369.757 DT     0455 Rx 8  00 80 00 00 00 00 00 00 
    825       371.883 DT     0217 Rx 8  00 00 00 00 00 00 00 00 
    826       374.363 DT     007A Rx 8  00 00 02 88 BC 70 00 00 
    827       374.605 DT     007B Rx 8  7F 96 CA 20 00 00 00 00 
    828       375.056 DT     0167 Rx 8  03 80 00 11 FF E0 00 00 
    829       375.338 DT     0204 Rx 8  C0 00 7D 00 00 00 00 00 
    830       375.604 DT     0205 Rx 8  00 00 00 00 00 00 00 00 
    831       376.476 DT     02EC Rx 8  00 00 10 8D 01 45 60 D8 
    832       378.274 DT     0242 Rx 8  FF FF 20 27 D7 00 03 00 
    833       378.514 DT     03A3 Rx 8  78 F0 20 EE 00 00 00 00 
    834       378.748 DT     042E Rx 8  66 A0 80 9E 82 66 00 00 
    835       379.097 DT     007E Rx 8  00 00 39 7B 00 0C 00 00 
    836       380.639 DT     0411 Rx 8  00 00 10 A2 AB AA 00 00 
    837       381.647 DT     04B0 Rx 8  01 00 FF FE 30 00 00 FC 
    838       381.973 DT     007D Rx 8  00 00 FC 30 00 3F EF FE 
    839       382.239 DT     007F Rx 8  00 00 FF F0 00 00 00 00 
    840       382.495 DT     0213 Rx 8  FF FF 00 14 00 11 FF 41 
    841       382.733 DT     012E Rx 8  46 10 E3 FF FF FF FF FF 
    842       382.961 DT     0216 Rx 8  77 E9 4B 6C AA 00 16 14 
    843       383.206 DT     03C5 Rx 8  00 00 20 3D D5 00 00 00 
    844       383.454 DT     0217 Rx 8  00 00 00 00 00 00 00 00 
    845       383.722 DT     0415 Rx 8  00 00 CC F9 0F FE EF FE 
    846       384.362 DT     007A Rx 8  00 00 02 88 BC 70 00 00 
    847       384.604 DT     007B Rx 8  7F 96 CA 20 00 00 00 00 
    848       385.041 DT     0047 Rx 8  04 B2 E1 11 B5 CC 00 00 
    849       385.509 DT     0167 Rx 8  03 80 00 11 FF E0 00 00 
    850       385.745 DT     0048 Rx 8  04 04 F1 79 DB B1 00 00 
    851       385.993 DT     0202 Rx 8  07 00 00 00 20 00 00 00 
    852       386.257 DT     0204 Rx 8  C0 00 7D 00 00 00 00 00 
    853       386.525 DT     0205 Rx 8  00 00 00 00 00 00 00 00 
    854       386.792 DT     0230 Rx 8  00 00 00 00 FE 00 00 03 
    855       387.054 DT     025B Rx 8  01 F4 09 F4 E0 00 80 00 
    856       388.538 DT     0041 Rx 8  00 00 00 00 00 00 00 00 
    857       388.790 DT     0042 Rx 8  00 00 00 00 00 00 00 00 
    858       389.032 DT     0331 Rx 8  C0 00 00 00 04 B2 14 00 
    859       389.270 DT     03B6 Rx 8  08 00 01 00 24 77 7D 02 
    860       389.514 DT     005A Rx 8  00 00 00 0B F7 31 10 00 
    861       389.757 DT     03B7 Rx 8  00 00 01 00 60 00 8E 7E 
    862       390.001 DT     042C Rx 8  84 00 00 00 17 B0 00 00 
    863       391.751 DT     0217 Rx 8  00 00 00 00 00 00 00 00 
    864       394.409 DT     007A Rx 8  00 00 02 88 BC 70 00 00 
    865       394.651 DT     007B Rx 8  7F 97 4A 20 00 00 00 00 
    866       395.070 DT     0167 Rx 8  03 80 00 11 FF E0 00 00 
    867       395.350 DT     0204 Rx 8  C0 00 7D 00 00 00 00 00 
    868       395.616 DT     0205 Rx 8  00 00 00 00 00 00 00 00 
    869       398.536 DT     007E Rx 8  00 00 39 7B 00 0C 00 00 
    870       401.630 DT     04B0 Rx 8  01 00 FF FE 40 00 00 FB 
    871       401.964 DT     007D Rx 8  00 00 FB 40 00 3F EF FE 
    872       402.232 DT     007F Rx 8  00 00 FF F0 00 00 00 00 
    873       402.490 DT     0213 Rx 8  FF FF 00 14 00 11 FF 41 
    874       402.778 DT     0216 Rx 8  77 E9 4B 6C AA 00 17 11 
    875       403.045 DT     0217 Rx 8  00 00 00 00 00 00 00 00 
    876       403.313 DT     0415 Rx 8  00 00 D0 F8 0F FE EF FE 
    877       404.135 DT     007A Rx 8  00 00 02 88 BC 70 00 00 
    878       404.377 DT     007B Rx 8  7F 97 0A 20 00 00 00 00 
    879       405.006 DT     0410 Rx 8  00 00 40 02 01 FF 83 00 
    880       405.254 DT     0047 Rx 8  04 B2 E1 11 B5 CC 00 00 
    881       405.554 DT     005C Rx 8  87 0C 00 00 A0 11 00 00 
    882       405.812 DT     0167 Rx 8  03 80 00 11 FF E0 00 00 
    883       406.104 DT     0176 Rx 8  00 00 00 10 00 00 00 00 
    884       406.360 DT     0185 Rx 8  01 E0 75 54 A2 40 00 00 
    885       406.622 DT     0202 Rx 8  07 00 00 00 20 00 00 00 
    886       406.912 DT     0203 Rx 8  00 00 00 00 00 00 00 00 
    887       407.181 DT     0204 Rx 8  C0 00 7D 00 00 00 00 00 
    888       407.509 DT     0205 Rx 8  00 00 00 00 00 00 00 00 
    889       407.745 DT     0048 Rx 8  04 04 F1 79 DB B1 00 00 
    890       407.993 DT     0230 Rx 8  00 00 00 00 FE 00 00 03 
    891       408.255 DT     0041 Rx 8  00 00 00 00 00 00 00 00 
    892       408.507 DT     0042 Rx 8  00 00 00 00 00 00 00 00 
    893       408.751 DT     025A Rx 8  00 01 90 00 00 00 00 00 
    894       409.014 DT     025B Rx 8  01 F4 09 F4 E0 00 80 00 
    895       411.738 DT     0217 Rx 8  00 00 00 00 00 00 00 00 
    896       412.980 DT     033D Rx 8  00 00 00 00 00 00 00 00 
    897       413.376 DT     043D Rx 8  40 08 DC 09 03 86 02 76 
    898       414.180 DT     007A Rx 8  00 00 02 88 BC 70 00 00 
    899       414.425 DT     007B Rx 8  7F 96 8A 20 00 00 00 00 
    900       415.077 DT     0167 Rx 8  03 80 00 11 FF E0 00 00 
    901       415.359 DT     0204 Rx 8  C0 00 7D 00 00 00 00 00 
    902       415.627 DT     0205 Rx 8  00 00 00 00 00 00 00 00 
    903       416.869 DT     0333 Rx 8  00 00 00 00 00 40 00 00 
    904       417.791 DT     0083 Rx 8  00 E0 80 00 00 92 F0 00 
    905       418.206 DT     0242 Rx 8  FF FF 20 27 D7 00 03 00 
    906       418.446 DT     039B Rx 8  FE 00 2F FE FF E2 89 00 
    907       418.680 DT     042E Rx 8  66 A0 80 9E 82 66 00 00 
    908       419.160 DT     0430 Rx 8  02 02 48 74 FE 41 32 90 
    909       419.446 DT     0375 Rx 8  EF F1 00 00 00 00 7F FF 
    910       419.704 DT     007E Rx 8  00 00 39 7B 00 0C 00 00 
    911       419.974 DT     0434 Rx 8  20 00 14 00 04 F7 00 00 
    912       420.243 DT     0435 Rx 8  54 50 00 00 00 20 00 00 
    913       421.613 DT     04B0 Rx 8  01 00 FF FE 50 00 00 FA 
    914       421.977 DT     007D Rx 8  00 00 FA 50 00 3F EF FE 
    915       422.241 DT     007F Rx 8  00 00 FF F0 00 00 00 00 
    916       422.547 DT     0213 Rx 8  FF FF 00 14 00 11 FF 41 
    917       422.799 DT     0216 Rx 8  77 E9 4B 6C AA 00 18 00 
    918       423.111 DT     0217 Rx 8  00 00 00 00 00 00 00 00 
    919       423.400 DT     0332 Rx 8  00 00 00 00 00 00 10 00 
    920       423.664 DT     0415 Rx 8  00 00 D4 F7 0F FE EF FE 
    921       424.330 DT     007A Rx 8  00 00 02 88 BC 70 00 00 
    922       424.572 DT     007B Rx 8  7F 96 CA 20 00 00 00 00 
    923       424.995 DT     0047 Rx 8  04 B2 E1 11 B5 CC 00 00 
    924       425.413 DT     0167 Rx 8  03 80 00 11 FF E0 00 00 
    925       425.891 DT     0202 Rx 8  07 00 00 00 20 00 00 00 
    926       426.159 DT     0204 Rx 8  C0 00 7D 00 00 00 00 00 
    927       426.459 DT     0205 Rx 8  00 00 00 00 00 00 00 00 
    928       426.726 DT     0230 Rx 8  00 00 00 00 FE 00 00 03 
    929       427.018 DT     025B Rx 8  01 F4 09 F4 E0 00 80 00 
    930       428.696 DT     0041 Rx 8  00 00 00 00 00 00 00 00 
    931       428.948 DT     0042 Rx 8  00 00 00 00 00 00 00 00 
    932       429.542 DT     0048 Rx 8  04 04 F1 79 DB B1 00 00 
    933       431.720 DT     0217 Rx 8  00 00 00 00 00 00 00 00 
    934       434.898 DT     007A Rx 8  00 00 02 88 BC 70 00 00 
    935       435.141 DT     007B Rx 8  7F 97 4A 20 00 00 00 00 
    936       435.382 DT     0167 Rx 8  03 80 00 11 FF E0 00 00 
    937       435.650 DT     0204 Rx 8  C0 00 7D 00 00 00 00 00 
    938       435.914 DT     0205 Rx 8  00 00 00 00 00 00 00 00 
    939       438.234 DT     03A3 Rx 8  28 FA 20 F8 00 00 00 00 
    940       438.478 DT     012F Rx 8  0B F6 3F FF FF FF FF FF 
    941       438.714 DT     0326 Rx 8  01 90 02 4C 01 90 00 C8 
    942       438.946 DT     042B Rx 8  D7 82 82 7A 50 38 EA 00 
    943       439.190 DT     007E Rx 8  00 00 39 7B 00 0C 00 00 
    944       439.435 DT     042C Rx 8  84 00 00 00 17 B0 00 00 
    945       441.595 DT     04B0 Rx 8  01 00 FF FE 60 00 00 F9 
    946       441.933 DT     007D Rx 8  00 00 F9 60 00 3F EF FE 
    947       442.199 DT     007F Rx 8  00 00 FF F0 00 00 00 00 
    948       442.461 DT     0213 Rx 8  FF FF 00 14 00 11 FF 41 
    949       442.749 DT     0216 Rx 8  77 E9 4B 6C AA 00 19 45 
    950       443.021 DT     0217 Rx 8  00 00 00 00 00 00 00 00 
    951       443.287 DT     0415 Rx 8  00 00 D8 F6 0F FE EF FE 
    952       444.368 DT     007A Rx 8  00 00 02 88 BC 70 00 00 
    953       444.610 DT     007B Rx 8  7F 97 0A 20 00 00 00 00 
    954       444.844 DT     024B Rx 8  02 DE 07 81 9F 0A 74 BE 
    955       445.078 DT     0047 Rx 8  04 B2 E1 11 B5 CC 00 00 
    956       445.315 DT     024C Rx 8  4B A0 89 0C BE 00 40 03 
    957       445.557 DT     0167 Rx 8  03 80 00 11 FF E0 00 00 
    958       445.789 DT     0286 Rx 8  0B F1 17 E2 0B 5A 17 A5 
    959       446.035 DT     0202 Rx 8  07 00 00 00 20 00 00 00 
    960       446.280 DT     02E4 Rx 8  0A 00 00 00 01 75 00 00 
    961       446.530 DT     0204 Rx 8  C0 00 7D 00 00 00 00 00 
    962       446.772 DT     046F Rx 8  09 EE 00 D9 00 00 00 00 
    963       447.022 DT     0205 Rx 8  00 00 00 00 00 00 00 00 
    964       447.249 DT     0490 Rx 8  A2 BA 2A A2 BA 2A A2 B0 
    965       447.497 DT     0230 Rx 8  00 00 00 00 FE 00 00 03 
    966       447.723 DT     0491 Rx 8  A2 AA 2A A2 AA 2B A2 A0 
    967       447.965 DT     025B Rx 8  01 F4 09 F4 E0 00 80 00 
    968       448.191 DT     0492 Rx 8  A2 AA 2B A2 BA 28 A2 B0 
    969       448.418 DT     0493 Rx 8  A2 9A 28 A2 AA 27 A2 C0 
    970       448.670 DT     0041 Rx 8  00 00 00 00 00 00 00 00 
    971       448.922 DT     0042 Rx 8  00 00 00 00 00 00 00 00 
    972       449.146 DT     0494 Rx 8  A2 6A 2B A2 AA 2A A2 B0 
    973       449.377 DT     0495 Rx 8  A2 AA 2B A2 AA 2B A2 A0 
    974       449.599 DT     0496 Rx 8  A2 AA 2B A2 AA 2A A2 B0 
    975       449.823 DT     0497 Rx 8  A2 AA 29 A2 CA 26 A2 E0 
    976       450.052 DT     0498 Rx 8  A2 EA 35 A2 EA 38 A3 00 
    977       450.278 DT     0499 Rx 8  A3 4A 32 A3 8A 34 A3 80 
    978       450.500 DT     049A Rx 8  A2 8A 2B A2 CA 2C A2 B0 
    979       450.723 DT     049B Rx 8  A2 AA 2B A2 AA 2C A2 B0 
    980       450.949 DT     049C Rx 8  A2 8A 2A A2 7A 2A A2 90 
    981       451.193 DT     04DF Rx 8  40 F7 00 00 00 00 00 00 
    982       451.419 DT     049D Rx 8  A2 7A 2A A2 8A 2A A2 80 
    983       451.656 DT     0048 Rx 8  04 04 F1 79 DB B1 00 00 
    984       451.904 DT     0217 Rx 8  00 00 00 00 00 00 00 00 
    985       452.128 DT     049E Rx 8  A2 8A 29 A2 AA 2A A2 90 
    986       452.424 DT     049F Rx 8  A2 9A 2A A2 AA 29 A2 90 
    987       452.696 DT     04A0 Rx 8  A2 8A 29 A2 AA 2A A2 A0 
    988       452.969 DT     04A1 Rx 8  A2 AA 2A A2 AA 2C A2 A0 
    989       453.265 DT     04A2 Rx 8  FF EF FE FF EF FE FF E0 
    990       453.559 DT     04A3 Rx 8  FF E0 44 44 44 45 45 45 
    991       453.868 DT     04A4 Rx 8  44 45 44 44 FE FE FE 00 
    992       454.160 DT     04A7 Rx 8  FE FE FE FE FE FE 00 00 
    993       454.988 DT     0167 Rx 8  03 80 00 11 FF E0 00 00 
    994       455.256 DT     0204 Rx 8  C0 00 7D 00 00 00 00 00 
    995       455.503 DT     007A Rx 8  00 00 02 88 BC 70 00 00 
    996       455.745 DT     007B Rx 8  7F 96 CA 20 00 00 00 00 
    997       455.995 DT     0205 Rx 8  00 00 00 00 00 00 00 00 
    998       458.203 DT     0242 Rx 8  FF FF 20 27 D7 00 03 00 
    999       458.437 DT     042E Rx 8  66 A0 80 9E 82 66 00 00 
   1000       458.685 DT     0455 Rx 8  00 80 00 00 00 00 00 00 
   1001       458.984 DT     007E Rx 8  00 00 39 7B 00 0C 00 00 
   1002       461.580 DT     04B0 Rx 8  01 00 FF FE 70 00 00 F8 
   1003       461.924 DT     007D Rx 8  00 00 F8 70 00 3F EF FE 
   1004       462.190 DT     007F Rx 8  00 00 FF F0 00 00 00 00 
   1005       462.448 DT     0213 Rx 8  FF FF 00 14 00 11 FF 41 
   1006       462.728 DT     0216 Rx 8  77 E9 4B 6C AA 00 1A 41 
   1007       462.970 DT     043D Rx 8  40 08 DC 09 04 86 02 76 
   1008       463.218 DT     0217 Rx 8  00 00 00 00 00 00 00 00 
   1009       463.485 DT     0415 Rx 8  00 00 DC F5 0F FE EF FE 
   1010       464.365 DT     007A Rx 8  00 00 02 88 BC 70 00 00 
   1011       464.609 DT     007B Rx 8  7F 96 8A 20 00 00 00 00 
   1012       464.921 DT     0047 Rx 8  04 B2 E1 11 B5 CC 00 00 
   1013       465.244 DT     0156 Rx 8  4B 00 00 00 01 00 00 00 
   1014       465.586 DT     0167 Rx 8  03 80 00 11 FF E0 00 00 
   1015       465.940 DT     0178 Rx 8  01 1C 02 00 4E 3F BE 3E 
   1016       466.396 DT     0202 Rx 8  07 00 00 00 20 00 00 00 
   1017       466.680 DT     0204 Rx 8  C0 00 7D 00 00 00 00 00 
   1018       467.100 DT     0205 Rx 8  00 00 00 00 00 00 00 00 
   1019       467.369 DT     0230 Rx 8  00 00 00 00 FE 00 00 03 
   1020       467.629 DT     025B Rx 8  01 F4 09 F4 E0 00 80 00 
   1021       467.901 DT     0421 Rx 8  00 00 10 00 00 00 2D 00 
   1022       468.163 DT     042D Rx 8  00 11 B8 27 37 00 00 00 
   1023       468.439 DT     043E Rx 8  00 73 00 00 00 00 00 00 
   1024       468.701 DT     0041 Rx 8  00 00 00 00 00 00 00 00 
   1025       468.953 DT     0042 Rx 8  00 00 00 00 00 00 00 00 
   1026       469.269 DT     028A Rx 8  0E D4 00 00 00 00 00 00 
   1027       471.822 DT     0217 Rx 8  00 00 00 00 00 00 00 00 
   1028       473.438 DT     0048 Rx 8  04 04 F1 79 DB B1 00 00 
   1029       474.358 DT     007A Rx 8  00 00 02 88 BC 70 00 00 
   1030       474.603 DT     007B Rx 8  7F 96 8A 20 00 00 00 00 
   1031       475.017 DT     0167 Rx 8  03 80 00 11 FF E0 00 00 
   1032       475.379 DT     0204 Rx 8  C0 00 7D 00 00 00 00 00 
   1033       475.647 DT     0205 Rx 8  00 00 00 00 00 00 00 00 
   1034       476.575 DT     02EC Rx 8  00 00 10 8D 01 45 60 D8 
   1035       478.831 DT     007E Rx 8  00 00 39 7B 00 0C 00 00 
   1036       480.573 DT     0411 Rx 8  00 00 10 A2 AB AA 00 00 
   1037       481.565 DT     04B0 Rx 8  01 00 FF FE 80 00 00 F7 
   1038       481.825 DT     0076 Rx 8  00 00 00 80 80 00 00 00 
   1039       482.082 DT     007D Rx 8  00 00 F7 80 00 3F EF FE 
   1040       482.408 DT     007F Rx 8  00 00 FF F0 00 00 00 00 
   1041       482.648 DT     012E Rx 8  1B 11 E3 FF FF FF FF FF 
   1042       482.888 DT     0213 Rx 8  FF FF 00 14 00 11 FF 41 
   1043       483.144 DT     0216 Rx 8  77 E9 4B 6C AA 00 1B 44 
   1044       483.414 DT     0217 Rx 8  00 00 00 00 00 00 00 00 
   1045       483.684 DT     0415 Rx 8  00 00 E0 F4 0F FE EF FE 
   1046       484.389 DT     007A Rx 8  00 00 02 88 BC 70 00 00 
   1047       484.631 DT     007B Rx 8  7F 97 4A 20 00 00 00 00 
   1048       484.985 DT     0047 Rx 8  04 B2 E1 11 B5 CC 00 00 
   1049       485.389 DT     0167 Rx 8  03 80 00 11 FF E0 00 00 
   1050       485.869 DT     0202 Rx 8  07 00 00 00 20 00 00 00 
   1051       486.156 DT     0204 Rx 8  C0 00 7D 00 00 00 00 00 
   1052       486.450 DT     0205 Rx 8  00 00 00 00 00 00 00 00 
   1053       486.716 DT     0230 Rx 8  00 00 00 00 FE 00 00 03 
   1054       487.008 DT     025B Rx 8  01 F4 09 F4 E0 00 80 00 
   1055       488.212 DT     0041 Rx 8  00 00 00 00 00 00 00 00 
   1056       488.464 DT     0042 Rx 8  00 00 00 00 00 00 00 00 
   1057       488.708 DT     042C Rx 8  84 00 00 00 17 B0 00 00 
   1058       489.397 DT     005A Rx 8  00 00 00 0B ED D1 10 00 
   1059       491.673 DT     0217 Rx 8  00 00 00 00 00 00 00 00 
   1060       494.263 DT     007A Rx 8  00 00 02 88 BC 70 00 00 
   1061       494.505 DT     007B Rx 8  7F 97 0A 20 00 00 00 00 
   1062       495.165 DT     0167 Rx 8  03 80 00 11 FF E0 00 00 
   1063       495.447 DT     0204 Rx 8  C0 00 7D 00 00 00 00 00 
   1064       495.684 DT     0048 Rx 8  04 04 F1 79 DB B1 00 00 
   1065       495.934 DT     0205 Rx 8  00 00 00 00 00 00 00 00 
   1066       498.204 DT     0242 Rx 8  FF FF 20 27 D7 00 03 00 
   1067       498.442 DT     03A3 Rx 8  58 F4 20 F2 00 00 00 00 
   1068       498.686 DT     007E Rx 8  00 00 39 7B 00 0C 00 00 
   1069       498.920 DT     042E Rx 8  66 A0 80 9E 82 66 00 00 
   1070       501.556 DT     04B0 Rx 8  01 00 FF FE 90 00 00 F6 
   1071       501.886 DT     007D Rx 8  00 00 F6 90 00 3F EF FE 
   1072       502.155 DT     007F Rx 8  00 00 FF F0 00 00 00 00 
   1073       502.507 DT     0213 Rx 8  FF FF 00 14 00 11 FF 41 
   1074       502.753 DT     0216 Rx 8  77 E9 4B 6C AA 00 1C 54 
   1075       503.019 DT     0217 Rx 8  00 00 00 00 00 00 00 00 
   1076       503.283 DT     0415 Rx 8  00 00 E4 F3 0F FE EF FE 
   1077       504.458 DT     007A Rx 8  00 00 02 88 BC 70 00 00 
   1078       504.700 DT     007B Rx 8  7F 96 CA 20 00 00 00 00 
   1079       505.004 DT     0047 Rx 8  04 B2 E1 11 B5 CC 00 00 
   1080       505.260 DT     005C Rx 8  87 0C 00 00 A0 11 00 00 
   1081       505.564 DT     0167 Rx 8  03 80 00 11 FF E0 00 00 
   1082       506.021 DT     0176 Rx 8  00 00 00 10 00 00 00 00 
   1083       506.275 DT     0185 Rx 8  01 E0 75 54 A2 40 00 00 
   1084       506.535 DT     0202 Rx 8  07 00 00 00 20 00 00 00 
   1085       506.805 DT     0203 Rx 8  00 00 00 00 00 00 00 00 
   1086       507.095 DT     0204 Rx 8  C0 00 7D 00 00 00 00 00 
   1087       507.363 DT     0205 Rx 8  00 00 00 00 00 00 00 00 
   1088       507.629 DT     0230 Rx 8  00 00 00 00 FE 00 00 03 
   1089       507.892 DT     025A Rx 8  00 01 90 00 00 00 00 00 
   1090       508.186 DT     025B Rx 8  01 F4 09 F4 E0 00 80 00 
   1091       508.462 DT     0410 Rx 8  00 00 40 02 01 FF 83 00 
   1092       508.714 DT     0041 Rx 8  00 00 00 00 00 00 00 00 
   1093       508.966 DT     0042 Rx 8  00 00 00 00 00 00 00 00 
   1094       511.654 DT     0217 Rx 8  00 00 00 00 00 00 00 00 
   1095       512.968 DT     033D Rx 8  00 00 00 00 00 00 00 00 
   1096       513.360 DT     043D Rx 8  40 08 DC 09 04 86 02 76 
   1097       514.424 DT     007A Rx 8  00 00 02 88 BC 70 00 00 
   1098       514.669 DT     007B Rx 8  7F 96 8A 20 00 00 00 00 
   1099       515.083 DT     0167 Rx 8  03 80 00 11 FF E0 00 00 
   1100       515.365 DT     0204 Rx 8  C0 00 7D 00 00 00 00 00 
   1101       515.631 DT     0205 Rx 8  00 00 00 00 00 00 00 00 
   1102       516.861 DT     0333 Rx 8  00 00 00 00 00 40 00 00 
   1103       517.517 DT     0083 Rx 8  00 E0 80 00 00 92 F0 00 
   1104       517.754 DT     0048 Rx 8  04 04 F1 79 DB B1 00 00 
   1105       518.258 DT     039B Rx 8  FE 00 2F FE FF E2 88 00 
   1106       518.732 DT     047E Rx 8  30 00 E7 E7 E7 FF 00 00 
   1107       519.012 DT     0430 Rx 8  02 02 48 74 FE 41 32 90 
   1108       519.282 DT     0434 Rx 8  20 00 14 00 04 F7 00 00 
   1109       519.540 DT     007E Rx 8  00 00 39 7B 00 0C 00 00 
   1110       519.814 DT     0435 Rx 8  00 00 00 00 00 20 00 00 
   1111       521.529 DT     04B0 Rx 8  01 00 FF FE A0 00 00 F5 
   1112       521.837 DT     0332 Rx 8  00 00 00 00 00 00 10 00 
   1113       522.117 DT     007D Rx 8  00 00 F5 A0 00 3F EF FE 
   1114       522.385 DT     007F Rx 8  00 00 FF F0 00 00 00 00 
   1115       522.667 DT     0213 Rx 8  FF FF 00 14 00 11 FF 41 
   1116       522.913 DT     0216 Rx 8  77 E9 4B 6C AA 00 1D 45 
   1117       523.178 DT     0217 Rx 8  00 00 00 00 00 00 00 00 
   1118       523.442 DT     0415 Rx 8  00 00 E8 F2 0F FE EF FE 
   1119       524.332 DT     007A Rx 8  00 00 02 88 BC 70 00 00 
   1120       524.574 DT     007B Rx 8  7F 96 CA 20 00 00 00 00 
   1121       524.973 DT     0047 Rx 8  04 B2 E1 11 B5 CC 00 00 
   1122       525.401 DT     0167 Rx 8  03 80 00 11 FF E0 00 00 
   1123       525.881 DT     0202 Rx 8  07 00 00 00 20 00 00 00 
   1124       526.163 DT     0204 Rx 8  C0 00 7D 00 00 00 00 00 
   1125       526.431 DT     0205 Rx 8  00 00 00 00 00 00 00 00 
   1126       526.697 DT     0230 Rx 8  00 00 00 00 FE 00 00 03 
   1127       527.002 DT     025B Rx 8  01 F4 09 F4 E0 00 80 00 
   1128       528.212 DT     0041 Rx 8  00 00 00 00 00 00 00 00 
   1129       528.464 DT     0042 Rx 8  00 00 00 00 00 00 00 00 
   1130       531.644 DT     0217 Rx 8  00 00 00 00 00 00 00 00 
   1131       534.892 DT     007A Rx 8  00 00 02 87 BC 70 00 00 
   1132       535.132 DT     007B Rx 8  7F 97 0A 1C 00 00 00 00 
   1133       535.375 DT     0167 Rx 8  03 80 00 11 FF E0 00 00 
   1134       535.643 DT     0204 Rx 8  C0 00 7D 00 00 00 00 00 
   1135       535.909 DT     0205 Rx 8  00 00 00 00 00 00 00 00 
   1136       538.202 DT     0242 Rx 8  FF FF 20 27 D7 00 03 00 
   1137       538.442 DT     012F Rx 8  56 F7 3F FF FF FF FF FF 
   1138       538.678 DT     0326 Rx 8  01 90 02 4C 01 90 00 C8 
   1139       538.928 DT     026E Rx 8  00 00 00 00 00 00 00 00 
   1140       539.172 DT     007E Rx 8  00 00 39 7B 00 0C 00 00 
   1141       539.422 DT     037E Rx 8  00 08 00 00 00 00 00 00 
   1142       539.659 DT     0048 Rx 8  04 04 F1 79 DB B1 00 00 
   1143       539.899 DT     03A4 Rx 8  91 CD 21 FF FF FF FF FF 
   1144       540.131 DT     042B Rx 8  D7 82 82 7A 50 38 EA 00 
   1145       540.367 DT     040A Rx 8  C1 02 30 36 36 37 30 00 
   1146       540.611 DT     042C Rx 8  84 00 00 00 17 B0 00 00 
   1147       540.845 DT     042E Rx 8  66 A0 80 9E 82 66 00 00 
   1148       541.098 DT     0468 Rx 8  00 00 00 00 00 20 00 00 
   1149       541.346 DT     0469 Rx 8  00 00 00 00 00 00 00 00 
   1150       541.592 DT     04B0 Rx 8  01 00 FF FE B0 00 00 F4 
   1151       541.890 DT     007D Rx 8  00 00 F4 B0 00 3F EF FE 
   1152       542.154 DT     007F Rx 8  00 00 FF F0 00 00 00 00 
   1153       542.486 DT     0213 Rx 8  FF FF 00 14 00 11 FF 41 
   1154       542.738 DT     0216 Rx 8  77 E9 4B 6C AA 00 1E 44 
   1155       543.009 DT     0217 Rx 8  00 00 00 00 00 00 00 00 
   1156       543.273 DT     0415 Rx 8  00 00 EC F1 0F FE EF FE 
   1157       544.369 DT     007A Rx 8  00 00 02 88 BC 70 00 00 
   1158       544.611 DT     007B Rx 8  7F 97 0A 20 00 00 00 00 
   1159       544.846 DT     024B Rx 8  02 DE 07 81 9F 0A 74 BE 
   1160       545.080 DT     0047 Rx 8  04 B2 E1 11 B5 CC 00 00 
   1161       545.316 DT     024C Rx 8  4B A0 89 0C BE 00 40 03 
   1162       545.559 DT     0167 Rx 8  03 80 00 11 FF E0 00 00 
   1163       545.791 DT     0286 Rx 8  0B F1 17 E2 0B 5A 17 A5 
   1164       546.037 DT     0202 Rx 8  07 00 00 00 20 00 00 00 
   1165       546.281 DT     02E4 Rx 8  0A 00 00 00 01 75 00 00 
   1166       546.531 DT     0204 Rx 8  C0 00 7D 00 00 00 00 00 
   1167       546.774 DT     046F Rx 8  09 EE 00 D9 00 00 00 00 
   1168       547.024 DT     0205 Rx 8  00 00 00 00 00 00 00 00 
   1169       547.254 DT     0490 Rx 8  A2 BA 29 A2 CA 2A A2 A0 
   1170       547.502 DT     0230 Rx 8  00 00 00 00 FE 00 00 03 
   1171       547.727 DT     0491 Rx 8  A2 AA 2A A2 9A 2C A2 A0 
   1172       547.969 DT     025B Rx 8  01 F4 09 F4 E0 00 80 00 
   1173       548.195 DT     0492 Rx 8  A2 9A 2B A2 AA 28 A2 A0 
   1174       548.419 DT     0493 Rx 8  A2 8A 2A A2 9A 2A A2 A0 
   1175       548.672 DT     0041 Rx 8  00 00 00 00 00 00 00 00 
   1176       548.924 DT     0042 Rx 8  00 00 00 00 00 00 00 00 
   1177       549.150 DT     0494 Rx 8  A2 8A 2A A2 9A 29 A2 C0 
   1178       549.374 DT     0495 Rx 8  A2 9A 2A A2 AA 2B A2 A0 
   1179       549.601 DT     0496 Rx 8  A2 AA 2A A2 AA 29 A2 A0 
   1180       549.823 DT     0497 Rx 8  A2 AA 2A A2 9A 2A A2 90 
   1181       550.049 DT     0498 Rx 8  A3 2A 30 A3 5A 32 A3 60 
   1182       550.298 DT     036F Rx 8  00 00 00 00 00 00 00 00 
   1183       550.522 DT     0499 Rx 8  A2 FA 36 A3 1A 39 A3 30 
   1184       550.748 DT     049A Rx 8  A2 BA 2A A2 EA 2B A2 C0 
   1185       550.972 DT     049B Rx 8  A2 BA 2A A2 9A 2B A2 A0 
   1186       551.199 DT     049C Rx 8  A2 8A 29 A2 9A 28 A2 A0 
   1187       551.447 DT     04DF Rx 8  10 FD 00 00 00 00 00 00 
   1188       551.695 DT     0217 Rx 8  00 00 00 00 00 00 00 00 
   1189       551.921 DT     049D Rx 8  A2 9A 29 A2 8A 28 A2 A0 
   1190       552.190 DT     049E Rx 8  A2 7A 2A A2 7A 2C A2 70 
   1191       552.476 DT     049F Rx 8  A2 BA 27 A2 CA 27 A2 B0 
   1192       552.762 DT     04A0 Rx 8  A2 8A 29 A2 9A 2A A2 A0 
   1193       553.033 DT     04A1 Rx 8  A2 BA 29 A2 CA 2A A2 A0 
   1194       553.329 DT     04A2 Rx 8  FF EF FE FF EF FE FF E0 
   1195       553.623 DT     04A3 Rx 8  FF E0 44 44 44 45 45 45 
   1196       553.938 DT     04A4 Rx 8  44 45 44 44 FE FE FE 00 
   1197       554.228 DT     04A7 Rx 8  FE FE FE FE FE FE 00 00 
   1198       555.048 DT     0167 Rx 8  03 80 00 11 FF E0 00 00 
   1199       555.316 DT     0204 Rx 8  C0 00 7D 00 00 00 00 00 
   1200       555.562 DT     007A Rx 8  00 00 02 88 BC 70 00 00 
   1201       555.805 DT     007B Rx 8  7F 96 CA 20 00 00 00 00 
   1202       556.055 DT     0205 Rx 8  00 00 00 00 00 00 00 00 
   1203       558.231 DT     03A3 Rx 8  08 FE 20 FC 00 00 00 00 
   1204       558.587 DT     0455 Rx 8  00 80 00 00 00 00 00 00 
   1205       558.843 DT     007E Rx 8  00 00 39 7B 00 0C 00 00 
   1206       561.509 DT     04B0 Rx 8  01 00 FF FE C0 00 00 F3 
   1207       561.746 DT     0048 Rx 8  04 04 F1 79 DB B1 00 00 
   1208       561.992 DT     007D Rx 8  00 00 F3 C0 00 3F EF FE 
   1209       562.260 DT     007F Rx 8  00 00 FF F0 00 00 00 00 
   1210       562.550 DT     0213 Rx 8  FF FF 00 14 00 11 FF 41 
   1211       562.800 DT     0216 Rx 8  77 E9 4B 6C AA 00 1F 54 
   1212       563.033 DT     043D Rx 8  40 08 DC 09 03 86 02 77 
   1213       563.281 DT     0217 Rx 8  00 00 00 00 00 00 00 00 
   1214       563.549 DT     0415 Rx 8  00 00 F0 F0 0F FE EF FE 
   1215       564.361 DT     007A Rx 8  00 00 02 88 BC 70 00 00 
   1216       564.605 DT     007B Rx 8  7F 96 8A 20 00 00 00 00 
   1217       565.046 DT     0047 Rx 8  04 B2 E1 11 B5 CC 00 00 
   1218       565.388 DT     0156 Rx 8  4B 00 00 00 01 00 00 00 
   1219       565.730 DT     0167 Rx 8  03 80 00 11 FF E0 00 00 
   1220       566.096 DT     0178 Rx 8  01 1C 02 00 4E 3F BE 3E 
   1221       566.550 DT     0202 Rx 8  07 00 00 00 20 00 00 00 
   1222       566.818 DT     0204 Rx 8  C0 00 7D 00 00 00 00 00 
   1223       567.136 DT     0205 Rx 8  00 00 00 00 00 00 00 00 
   1224       567.443 DT     0230 Rx 8  00 00 00 00 FE 00 00 03 
   1225       567.739 DT     025B Rx 8  01 F4 09 F4 E0 00 80 00 
   1226       568.057 DT     0421 Rx 8  00 00 10 00 00 00 2D 00 
   1227       568.319 DT     042D Rx 8  00 11 B8 27 37 00 00 00 
   1228       568.571 DT     0041 Rx 8  00 00 00 00 00 00 00 00 
   1229       568.823 DT     0042 Rx 8  00 00 00 00 00 00 00 00 
   1230       569.071 DT     043E Rx 8  00 73 00 00 00 00 00 00 
   1231       571.731 DT     0217 Rx 8  00 00 00 00 00 00 00 00 
   1232       574.354 DT     007A Rx 8  00 00 02 88 BC 70 00 00 
   1233       574.598 DT     007B Rx 8  7F 96 8A 20 00 00 00 00 
   1234       575.180 DT     0167 Rx 8  03 80 00 11 FF E0 00 00 
   1235       575.448 DT     0204 Rx 8  C0 00 7D 00 00 00 00 00 
   1236       575.718 DT     0205 Rx 8  00 00 00 00 00 00 00 00 
   1237       576.556 DT     02EC Rx 8  00 00 10 8D 01 45 60 D8 
   1238       578.203 DT     0242 Rx 8  FF FF 20 27 D7 00 03 00 
   1239       578.437 DT     042E Rx 8  66 A0 80 9E 82 66 00 00 
   1240       578.859 DT     007E Rx 8  00 00 39 7B 00 0C 00 00 
   1241       580.623 DT     0411 Rx 8  00 00 10 A2 AB AA 00 00 
   1242       581.485 DT     04B0 Rx 8  01 00 FF FE D0 00 00 F2 
   1243       581.811 DT     007D Rx 8  00 00 F2 D0 00 3F EF FE 
   1244       582.079 DT     007F Rx 8  00 00 FF F0 00 00 00 00 
   1245       582.340 DT     0213 Rx 8  FF FF 00 14 00 11 FF 41 
   1246       582.594 DT     012E Rx 8  FC 12 E3 FF FF FF FF FF 
   1247       582.824 DT     0216 Rx 8  77 E9 4B 6C AA 00 20 44 
   1248       583.090 DT     0217 Rx 8  00 00 00 00 00 00 00 00 
   1249       583.354 DT     0415 Rx 8  00 00 F4 EF 0F FE EF FE 
   1250       583.590 DT     0048 Rx 8  04 04 F1 79 DB B1 00 00 
   1251       584.351 DT     007A Rx 8  00 00 02 88 BC 70 00 00 
   1252       584.593 DT     007B Rx 8  7F 96 CA 20 00 00 00 00 
   1253       584.917 DT     0047 Rx 8  04 B2 E1 11 B5 CC 00 00 
   1254       585.383 DT     0167 Rx 8  03 80 00 11 FF E0 00 00 
   1255       585.859 DT     0202 Rx 8  07 00 00 00 20 00 00 00 
   1256       586.143 DT     0204 Rx 8  C0 00 7D 00 00 00 00 00 
   1257       586.412 DT     0205 Rx 8  00 00 00 00 00 00 00 00 
   1258       586.676 DT     0230 Rx 8  00 00 00 00 FE 00 00 03 
   1259       586.936 DT     025B Rx 8  01 F4 09 F4 E0 00 80 00 
   1260       588.516 DT     0041 Rx 8  00 00 00 00 00 00 00 00 
   1261       588.768 DT     0042 Rx 8  00 00 00 00 00 00 00 00 
   1262       589.012 DT     042C Rx 8  84 00 00 00 17 B0 00 00 
   1263       589.366 DT     005A Rx 8  00 00 00 0B F3 71 10 00 
   1264       591.592 DT     0217 Rx 8  00 00 00 00 00 00 00 00 
   1265       594.352 DT     007A Rx 8  00 00 02 88 BC 70 00 00 
   1266       594.595 DT     007B Rx 8  7F 97 0A 20 00 00 00 00 
   1267       595.261 DT     0167 Rx 8  03 80 00 11 FF E0 00 00 
   1268       595.537 DT     0204 Rx 8  C0 00 7D 00 00 00 00 00 
   1269       595.801 DT     0205 Rx 8  00 00 00 00 00 00 00 00 
   1270       598.583 DT     007E Rx 8  00 00 39 7B 00 0C 00 00 
   1271       601.466 DT     04B0 Rx 8  01 00 FF FE E0 00 00 F1 
   1272       601.804 DT     007D Rx 8  00 00 F1 E0 00 3F EF FE 
   1273       602.070 DT     007F Rx 8  00 00 FF F0 00 00 00 00 
   1274       602.330 DT     0213 Rx 8  FF FF 00 14 00 11 FF 41 
   1275       602.626 DT     0216 Rx 8  77 E9 4B 6C AA 00 21 40 
   1276       602.894 DT     0217 Rx 8  00 00 00 00 00 00 00 00 
   1277       603.166 DT     0415 Rx 8  00 00 F8 EE 0F FE EF FE 
   1278       604.455 DT     007A Rx 8  00 00 02 88 BC 70 00 00 
   1279       604.697 DT     007B Rx 8  7F 96 CA 20 00 00 00 00 
   1280       604.997 DT     0047 Rx 8  04 B2 E1 11 B5 CC 00 00 
   1281       605.253 DT     005C Rx 8  87 0C 00 00 A0 11 00 00 
   1282       605.563 DT     0167 Rx 8  03 80 00 11 FF E0 00 00 
   1283       605.800 DT     0048 Rx 8  04 04 F1 79 DB B1 00 00 
   1284       606.048 DT     0176 Rx 8  00 00 00 10 00 00 00 00 
   1285       606.304 DT     0185 Rx 8  01 E0 75 50 A2 40 00 00 
   1286       606.638 DT     0202 Rx 8  07 00 00 00 20 00 00 00 
   1287       606.902 DT     0203 Rx 8  00 00 00 00 00 00 00 00 
   1288       607.200 DT     0204 Rx 8  C0 00 7D 00 00 00 00 00 
   1289       607.549 DT     0205 Rx 8  00 00 00 00 00 00 00 00 
   1290       607.867 DT     0230 Rx 8  00 00 00 00 FE 00 00 03 
   1291       608.131 DT     025A Rx 8  00 01 90 00 00 00 00 00 
   1292       608.383 DT     0041 Rx 8  00 00 00 00 00 00 00 00 
   1293       608.635 DT     0042 Rx 8  00 00 00 00 00 00 00 00 
   1294       608.877 DT     025B Rx 8  01 F4 09 F4 E0 00 80 00 
   1295       609.195 DT     0410 Rx 8  00 00 40 01 C1 FF 83 00 
   1296       611.575 DT     0217 Rx 8  00 00 00 00 00 00 00 00 
   1297       612.953 DT     033D Rx 8  00 00 00 00 00 00 00 00 
   1298       613.345 DT     043D Rx 8  40 08 DC 09 04 86 02 76 
   1299       614.424 DT     007A Rx 8  00 00 02 88 BC 70 00 00 
   1300       614.666 DT     007B Rx 8  7F 96 CA 20 00 00 00 00 
   1301       615.084 DT     0167 Rx 8  03 80 00 11 FF E0 00 00 
   1302       615.372 DT     0204 Rx 8  C0 00 7D 00 00 00 00 00 
   1303       615.640 DT     0205 Rx 8  00 00 00 00 00 00 00 00 
   1304       616.844 DT     0333 Rx 8  00 00 00 00 00 40 00 00 
   1305       617.551 DT     0083 Rx 8  00 E0 80 00 00 92 F0 00 
   1306       618.201 DT     0242 Rx 8  FF FF 20 27 D7 00 03 00 
   1307       618.441 DT     039B Rx 8  FE 00 2F FE FF E2 89 00 
   1308       618.685 DT     03A3 Rx 8  38 F8 20 F6 00 00 00 00 
   1309       618.919 DT     042E Rx 8  66 A0 80 9E 82 66 00 00 
   1310       619.165 DT     047E Rx 8  40 00 00 23 EC 00 00 00 
   1311       619.451 DT     0375 Rx 8  08 F2 00 00 00 00 7F FF 
   1312       619.710 DT     007E Rx 8  00 00 39 7B 00 0C 00 00 
   1313       619.970 DT     0430 Rx 8  02 02 48 74 FE 41 32 90 
   1314       620.238 DT     0434 Rx 8  20 00 14 00 04 F7 00 00 
   1315       620.510 DT     0435 Rx 8  00 00 00 00 00 20 00 00 
   1316       621.454 DT     04B0 Rx 8  01 00 FF FE F0 00 00 F0 
   1317       621.760 DT     0332 Rx 8  00 00 00 00 00 00 10 00 
   1318       622.032 DT     007D Rx 8  00 00 F0 F0 00 3F EF FE 
   1319       622.300 DT     007F Rx 8  00 00 FF F0 00 00 00 00 
   1320       622.585 DT     0213 Rx 8  FF FF 00 14 00 11 FF 41 
   1321       622.841 DT     0216 Rx 8  77 E9 4B 6C AA 00 22 00 
   1322       623.181 DT     0217 Rx 8  00 00 00 00 00 00 00 00 
   1323       623.445 DT     0415 Rx 8  00 00 FC ED 0F FE EF FE 
   1324       624.327 DT     007A Rx 8  00 00 02 88 BC 70 00 00 
   1325       624.570 DT     007B Rx 8  7F 96 CA 20 00 00 00 00 
   1326       625.056 DT     0047 Rx 8  04 B2 E1 11 B5 CC 00 00 
   1327       625.512 DT     0167 Rx 8  03 80 00 11 FF E0 00 00 
   1328       625.990 DT     0202 Rx 8  07 00 00 00 20 00 00 00 
   1329       626.272 DT     0204 Rx 8  C0 00 7D 00 00 00 00 00 
   1330       626.538 DT     0205 Rx 8  00 00 00 00 00 00 00 00 
   1331       626.805 DT     0230 Rx 8  00 00 00 00 FE 00 00 03 
   1332       627.065 DT     025B Rx 8  01 F4 09 F4 E0 00 80 00 
   1333       627.565 DT     0048 Rx 8  04 04 F1 79 DB B1 00 00 
   1334       628.471 DT     0041 Rx 8  00 00 00 00 00 00 00 00 
   1335       628.723 DT     0042 Rx 8  00 00 00 00 00 00 00 00 
   1336       631.565 DT     0217 Rx 8  00 00 00 00 00 00 00 00 
   1337       634.472 DT     007A Rx 8  00 00 02 88 BC 70 00 00 
   1338       634.714 DT     007B Rx 8  7F 97 0A 20 00 00 00 00 
   1339       635.196 DT     0167 Rx 8  03 80 00 11 FF E0 00 00 
   1340       635.470 DT     0204 Rx 8  C0 00 7D 00 00 00 00 00 
   1341       635.736 DT     0205 Rx 8  00 00 00 00 00 00 00 00 
   1342       638.201 DT     03B6 Rx 8  08 00 02 00 24 A8 71 E3 
   1343       638.449 DT     012F Rx 8  0A F8 3F FF FF FF FF FF 
   1344       638.685 DT     0326 Rx 8  01 90 02 4C 01 90 00 C8 
   1345       638.924 DT     03B7 Rx 8  00 00 02 00 60 46 D2 92 
   1346       639.168 DT     007E Rx 8  00 00 39 7B 00 0C 00 00 
   1347       639.416 DT     03B8 Rx 8  FF FF FF FF 00 00 00 00 
   1348       639.648 DT     042B Rx 8  D7 82 82 7A 50 38 EA 00 
   1349       639.892 DT     042C Rx 8  84 00 00 00 17 B0 00 00 
   1350       641.438 DT     04B0 Rx 8  01 00 FF FE 00 00 00 FF 
   1351       641.775 DT     007D Rx 8  00 00 FF 00 00 3F EF FE 
   1352       642.041 DT     007F Rx 8  00 00 FF F0 00 00 00 00 
   1353       642.301 DT     0213 Rx 8  FF FF 00 14 00 11 FF 41 
   1354       642.944 DT     0080 Tx 8  01 02 03 04 00 00 00 00 
   1355       642.591 DT     0216 Rx 8  77 E9 4B 6C AA 00 23 10 
   1356       642.857 DT     0217 Rx 8  00 00 00 00 00 00 00 00 
   1357       643.155 DT     0415 Rx 8  00 00 C0 FC 0F FE EF FE 
   1358       644.298 DT     007A Rx 8  00 00 02 88 BC 70 00 00 
   1359       644.540 DT     007B Rx 8  7F 97 4A 20 00 00 00 00 
   1360       644.774 DT     024B Rx 8  02 DE 07 81 9F 0A 74 BE 
   1361       645.008 DT     0047 Rx 8  04 B2 E1 11 B5 CC 00 00 
   1362       645.245 DT     024C Rx 8  4B A0 89 0C BE 00 40 03 
   1363       645.487 DT     0167 Rx 8  03 80 00 11 FF E0 00 00 
   1364       645.719 DT     0286 Rx 8  0B F1 17 E2 0B 5A 17 A5 
   1365       645.965 DT     0202 Rx 8  07 00 00 00 20 00 00 00 
   1366       646.210 DT     02E4 Rx 8  0A 00 00 00 01 75 00 00 
   1367       646.460 DT     0204 Rx 8  C0 00 7D 00 00 00 00 00 
   1368       646.702 DT     046F Rx 8  09 EE 00 D9 00 00 00 00 
   1369       646.952 DT     0205 Rx 8  00 00 00 00 00 00 00 00 
   1370       647.180 DT     0490 Rx 8  A2 BA 2A A2 BA 2A A2 A0 
   1371       647.429 DT     0230 Rx 8  00 00 00 00 FE 00 00 03 
   1372       647.655 DT     0491 Rx 8  A2 AA 2A A2 AA 2B A2 A0 
   1373       647.897 DT     025B Rx 8  01 F4 09 F4 E0 00 80 00 
   1374       648.123 DT     0492 Rx 8  A2 AA 2A A2 AA 28 A2 A0 
   1375       648.376 DT     0041 Rx 8  00 00 00 00 00 00 00 00 
   1376       648.628 DT     0042 Rx 8  00 00 00 00 00 00 00 00 
   1377       648.852 DT     0493 Rx 8  A2 9A 29 A2 AA 27 A2 C0 
   1378       649.076 DT     0494 Rx 8  A2 5A 2B A2 9A 29 A2 B0 
   1379       649.300 DT     0495 Rx 8  A2 9A 2A A2 AA 2A A2 A0 
   1380       649.525 DT     0496 Rx 8  A2 BA 2B A2 AA 2A A2 A0 
   1381       649.761 DT     0048 Rx 8  04 04 F1 79 DB B1 00 00 
   1382       649.987 DT     0497 Rx 8  A2 AA 29 A2 DA 26 A2 D0 
   1383       650.214 DT     0498 Rx 8  A2 EA 35 A2 EA 37 A3 00 
   1384       650.436 DT     0499 Rx 8  A3 3A 32 A3 7A 34 A3 70 
   1385       650.662 DT     049A Rx 8  A2 9A 2C A2 DA 2C A2 B0 
   1386       650.887 DT     049B Rx 8  A2 BA 2A A2 AA 2C A2 A0 
   1387       651.117 DT     049C Rx 8  A2 8A 2A A2 7A 2A A2 80 
   1388       651.363 DT     04DF Rx 8  60 F3 00 00 00 00 00 00 
   1389       651.612 DT     0217 Rx 8  00 00 00 00 00 00 00 00 
   1390       651.838 DT     049D Rx 8  A2 7A 2A A2 7A 2A A2 90 
   1391       652.108 DT     049E Rx 8  A2 8A 2A A2 9A 29 A2 A0 
   1392       652.374 DT     049F Rx 8  A2 9A 28 A2 AA 2A A2 90 
   1393       652.659 DT     04A0 Rx 8  A2 AA 2B A2 CA 2A A2 A0 
   1394       652.933 DT     04A1 Rx 8  A2 AA 2A A2 9A 2A A2 A0 
   1395       653.251 DT     04A2 Rx 8  FF EF FE FF EF FE FF E0 
   1396       653.530 DT     04A3 Rx 8  FF E0 44 44 44 45 45 45 
   1397       653.810 DT     04A4 Rx 8  44 45 44 44 FE FE FE 00 
   1398       654.096 DT     04A7 Rx 8  FE FE FE FE FE FE 00 00 
   1399       655.169 DT     0167 Rx 8  03 80 00 11 FF E0 00 00 
   1400       655.415 DT     007A Rx 8  00 00 02 88 BC 70 00 00 
   1401       655.657 DT     007B Rx 8  7F 97 0A 20 00 00 00 00 
   1402       655.907 DT     0204 Rx 8  C0 00 7D 00 00 00 00 00 
   1403       656.177 DT     0205 Rx 8  00 00 00 00 00 00 00 00 
   1404       658.200 DT     0242 Rx 8  FF FF 20 27 D7 00 03 00 
   1405       658.434 DT     042E Rx 8  66 A0 80 9E 82 66 00 00 
   1406       658.682 DT     0455 Rx 8  00 80 00 00 00 00 00 00 
   1407       658.986 DT     007E Rx 8  00 00 39 7B 00 0C 00 00 
   1408       661.430 DT     04B0 Rx 8  01 00 FF FE 10 00 00 FE 
   1409       661.756 DT     007D Rx 8  00 00 FE 10 00 3F EF FE 
   1410       662.024 DT     007F Rx 8  00 00 FF F0 00 00 00 00 
   1411       662.280 DT     0213 Rx 8  FF FF 00 14 00 11 FF 41 
   1412       662.570 DT     0216 Rx 8  77 E9 4B 6C AA 00 24 15 
   1413       662.837 DT     0217 Rx 8  00 00 00 00 00 00 00 00 
   1414       663.072 DT     043D Rx 8  40 08 DC 09 03 86 02 76 
   1415       663.313 DT     0415 Rx 8  00 00 C4 FB 0F FE EF FE 
   1416       664.355 DT     007A Rx 8  00 00 02 88 BC 70 00 00 
   1417       664.599 DT     007B Rx 8  7F 96 8A 20 00 00 00 00 
   1418       664.971 DT     0047 Rx 8  04 B2 E1 11 B5 CC 00 00 
   1419       665.287 DT     0156 Rx 8  4B 00 00 00 01 00 00 00 
   1420       665.614 DT     0167 Rx 8  03 80 00 11 FF E0 00 00 
   1421       665.978 DT     0178 Rx 8  01 1C 02 00 4E 3F BE 3E 
   1422       666.448 DT     0202 Rx 8  07 00 00 00 20 00 00 00 
   1423       666.718 DT     0204 Rx 8  C0 00 7D 00 00 00 00 00 
   1424       667.066 DT     0205 Rx 8  00 00 00 00 00 00 00 00 
   1425       667.370 DT     0230 Rx 8  00 00 00 00 FE 00 00 03 
   1426       667.632 DT     025B Rx 8  01 F4 09 F4 E0 00 80 00 
   1427       667.934 DT     0421 Rx 8  00 00 10 00 00 00 2D 00 
   1428       668.197 DT     042D Rx 8  00 11 B8 27 37 00 00 00 
   1429       668.471 DT     043E Rx 8  00 73 00 00 00 00 00 00 
   1430       668.827 DT     0041 Rx 8  00 00 00 00 00 00 00 00 
   1431       669.079 DT     0042 Rx 8  00 00 00 00 00 00 00 00 
   1432       671.563 DT     0048 Rx 8  04 04 F1 79 DB B1 00 00 
   1433       671.811 DT     0217 Rx 8  00 00 00 00 00 00 00 00 
   1434       674.352 DT     007A Rx 8  00 00 02 88 BC 70 00 00 
   1435       674.594 DT     007B Rx 8  7F 97 0A 20 00 00 00 00 
   1436       675.046 DT     0167 Rx 8  03 80 00 11 FF E0 00 00 
   1437       675.324 DT     0204 Rx 8  C0 00 7D 00 00 00 00 00 
   1438       675.594 DT     0205 Rx 8  00 00 00 00 00 00 00 00 
   1439       676.562 DT     02EC Rx 8  00 00 10 8D 01 45 60 D8 
   1440       678.227 DT     03A3 Rx 8  68 F2 20 F0 00 00 00 00 
   1441       678.833 DT     007E Rx 8  00 00 39 7B 00 0C 00 00 
   1442       680.561 DT     0411 Rx 8  00 00 10 A2 AB AA 00 00 
   1443       681.401 DT     04B0 Rx 8  01 00 FF FE 20 00 00 FD 
   1444       681.751 DT     007D Rx 8  00 00 FD 20 00 3F EF FE 
   1445       682.019 DT     007F Rx 8  00 00 FF F0 00 00 00 00 
   1446       682.275 DT     0213 Rx 8  FF FF 00 14 00 11 FF 41 
   1447       682.549 DT     0216 Rx 8  77 E9 4B 6C AA 00 25 44 
   1448       682.790 DT     012E Rx 8  A1 13 E3 FF FF FF FF FF 
   1449       683.038 DT     0217 Rx 8  00 00 00 00 00 00 00 00 
   1450       683.306 DT     0415 Rx 8  00 00 C8 FA 0F FE EF FE 
   1451       684.296 DT     007A Rx 8  00 00 02 88 BC 70 00 00 
   1452       684.538 DT     007B Rx 8  7F 97 0A 20 00 00 00 00 
   1453       685.011 DT     0047 Rx 8  04 B2 E1 11 B5 CC 00 00 
   1454       685.435 DT     0167 Rx 8  03 80 00 11 FF E0 00 00 
   1455       686.029 DT     0202 Rx 8  07 00 00 00 20 00 00 00 
   1456       686.303 DT     0204 Rx 8  C0 00 7D 00 00 00 00 00 
   1457       686.569 DT     0205 Rx 8  00 00 00 00 00 00 00 00 
   1458       686.833 DT     0230 Rx 8  00 00 00 00 FE 00 00 03 
   1459       687.093 DT     025B Rx 8  01 F4 09 F4 E0 00 80 00 
   1460       688.207 DT     0041 Rx 8  00 00 00 00 00 00 00 00 
   1461       688.460 DT     0042 Rx 8  00 00 00 00 00 00 00 00 
   1462       688.704 DT     042C Rx 8  84 00 00 00 17 B0 00 00 
   1463       689.392 DT     005A Rx 8  00 00 00 0B F9 11 10 00 
   1464       691.514 DT     0217 Rx 8  00 00 00 00 00 00 00 00 
   1465       693.462 DT     0048 Rx 8  04 04 F1 79 DB B1 00 00 
   1466       694.267 DT     007A Rx 8  00 00 02 88 BC 70 00 00 
   1467       694.509 DT     007B Rx 8  7F 97 4A 20 00 00 00 00 
   1468       695.165 DT     0167 Rx 8  03 80 00 11 FF E0 00 00 
   1469       695.437 DT     0204 Rx 8  C0 00 7D 00 00 00 00 00 
   1470       695.705 DT     0205 Rx 8  00 00 00 00 00 00 00 00 
   1471       698.199 DT     0242 Rx 8  FF FF 20 27 D7 00 03 00 
   1472       698.444 DT     03B5 Rx 8  01 06 00 FE 00 FE 00 FC 
   1473       698.688 DT     007E Rx 8  00 00 39 7B 00 0C 00 00 
   1474       698.922 DT     042E Rx 8  66 A0 80 9E 82 66 00 00 
   1475       701.396 DT     04B0 Rx 8  01 00 FF FE 30 00 00 FC 
   1476       701.722 DT     007D Rx 8  00 00 FC 30 00 3F EF FE 
   1477       701.988 DT     007F Rx 8  00 00 FF F0 00 00 00 00 
   1478       702.246 DT     0213 Rx 8  FF FF 00 14 00 11 FF 41 
   1479       702.544 DT     0216 Rx 8  77 E9 4B 6C AA 00 26 10 
   1480       702.810 DT     0217 Rx 8  00 00 00 00 00 00 00 00 
   1481       703.078 DT     0415 Rx 8  00 00 CC F9 0F FE EF FE 
   1482       704.197 DT     007A Rx 8  00 00 02 88 BC 70 00 00 
   1483       704.439 DT     007B Rx 8  7F 97 0A 20 00 00 00 00 
   1484       704.989 DT     0047 Rx 8  04 B2 E1 11 B5 CC 00 00 
   1485       705.248 DT     005C Rx 8  87 0C 00 00 A0 11 00 00 
   1486       705.504 DT     0167 Rx 8  03 80 00 11 FF E0 00 00 
   1487       705.834 DT     0176 Rx 8  00 00 00 10 00 00 00 00 
   1488       706.088 DT     0185 Rx 8  01 E0 75 50 A2 40 00 00 
   1489       706.394 DT     0202 Rx 8  07 00 00 00 20 00 00 00 
   1490       706.660 DT     0203 Rx 8  00 00 00 00 00 00 00 00 
   1491       706.942 DT     0204 Rx 8  C0 00 7D 00 00 00 00 00 
   1492       707.210 DT     0205 Rx 8  00 00 00 00 00 00 00 00 
   1493       707.509 DT     0230 Rx 8  00 00 00 00 FE 00 00 03 
   1494       707.781 DT     025A Rx 8  00 01 90 00 00 00 00 00 
   1495       708.091 DT     025B Rx 8  01 F4 09 F4 E0 00 80 00 
   1496       708.365 DT     0410 Rx 8  00 00 40 01 C1 FF 83 00 
   1497       708.617 DT     0041 Rx 8  00 00 00 00 00 00 00 00 
   1498       708.869 DT     0042 Rx 8  00 00 00 00 00 00 00 00 
   1499       711.495 DT     0217 Rx 8  00 00 00 00 00 00 00 00 
   1500       712.941 DT     033D Rx 8  00 00 00 00 00 00 00 00 
   1501       713.349 DT     043D Rx 8  40 08 DC 09 04 86 02 76 
   1502       713.713 DT     045F Rx 8  03 FE 00 00 00 00 00 00 
   1503       714.302 DT     007A Rx 8  00 00 02 88 BC 70 00 00 
   1504       714.544 DT     007B Rx 8  7F 96 CA 20 00 00 00 00 
   1505       715.286 DT     0167 Rx 8  03 80 00 11 FF E0 00 00 
   1506       715.562 DT     0204 Rx 8  C0 00 7D 00 00 00 00 00 
   1507       715.799 DT     0048 Rx 8  04 04 F1 79 DB B1 00 00 
   1508       716.049 DT     0205 Rx 8  00 00 00 00 00 00 00 00 
   1509       716.847 DT     0333 Rx 8  00 00 00 00 00 40 00 00 
   1510       717.557 DT     0083 Rx 8  00 E0 80 00 00 92 F0 00 
   1511       718.211 DT     039B Rx 8  FE 00 2F FE FF E2 89 00 
   1512       718.537 DT     047E Rx 8  00 06 00 35 04 03 0B 00 
   1513       718.922 DT     0430 Rx 8  02 02 48 74 FE 45 32 90 
   1514       719.206 DT     028F Rx 8  FF FD FF FB FF F7 FC 00 
   1515       719.478 DT     028A Rx 8  0E D4 00 00 00 00 00 00 
   1516       719.734 DT     007E Rx 8  00 00 39 7B 00 0C 00 00 
   1517       720.006 DT     0434 Rx 8  20 00 14 00 04 F7 00 00 
   1518       720.308 DT     0435 Rx 8  00 00 05 00 00 20 00 00 
   1519       721.380 DT     04B0 Rx 8  01 00 FF FE 40 00 00 FB 
   1520       721.708 DT     007D Rx 8  00 00 FB 40 00 3F EF FE 
   1521       721.977 DT     007F Rx 8  00 00 FF F0 00 00 00 00 
   1522       722.237 DT     0213 Rx 8  FF FF 00 14 00 11 FF 41 
   1523       722.501 DT     0216 Rx 8  77 E9 4B 6C AA 00 27 00 
   1524       722.767 DT     0217 Rx 8  00 00 00 00 00 00 00 00 
   1525       723.039 DT     0332 Rx 8  00 00 00 00 00 00 10 00 
   1526       723.305 DT     0415 Rx 8  00 00 D0 F8 0F FE EF FE 
   1527       724.320 DT     007A Rx 8  00 00 02 88 BC 70 00 00 
   1528       724.562 DT     007B Rx 8  7F 96 CA 20 00 00 00 00 
   1529       724.982 DT     0047 Rx 8  04 B2 E1 11 B5 CC 00 00 
   1530       725.402 DT     0167 Rx 8  03 80 00 11 FF E0 00 00 
   1531       725.878 DT     0202 Rx 8  07 00 00 00 20 00 00 00 
   1532       726.167 DT     0204 Rx 8  C0 00 7D 00 00 00 00 00 
